Vs	Is	Vd	Id	Vg	Ig	
V	A	V	A	V	A	
0	-7.03836e-05	2	7.04277e-05	-15	-3.7e-13
0	-7.03535e-05	2	7.03242e-05	-14.9	-3.7e-13
0	-7.03297e-05	2	7.0321e-05	-14.8	-3.8e-13
0	-7.02975e-05	2	7.02615e-05	-14.7	-3.9e-13
0	-7.02298e-05	2	7.00651e-05	-14.6	-3.6e-13
0	-7.00258e-05	2	7.01193e-05	-14.5	-3.1e-13
0	-7.00967e-05	2	7.02329e-05	-14.4	-3.4e-13
0	-7.04392e-05	2	7.04514e-05	-14.3	-3.4e-13
0	-7.02162e-05	2	7.03754e-05	-14.2	-3.4e-13
0	-7.02574e-05	2	7.03201e-05	-14.1	-2.9e-13
0	-7.02005e-05	2	7.02693e-05	-14	-2.9e-13
0	-7.03467e-05	2	7.04567e-05	-13.9	-2.7e-13
0	-7.03711e-05	2	7.04079e-05	-13.8	-3e-13
0	-7.04453e-05	2	7.05162e-05	-13.7	-3.2e-13
0	-7.02935e-05	2	7.04103e-05	-13.6	-2.5e-13
0	-7.03602e-05	2	7.02513e-05	-13.5	-2.2e-13
0	-7.03926e-05	2	7.04463e-05	-13.4	-2.4e-13
0	-7.04349e-05	2	7.04926e-05	-13.3	-2.8e-13
0	-7.03771e-05	2	7.01359e-05	-13.2	-2.7e-13
0	-7.02272e-05	2	7.0478e-05	-13.1	-2.5e-13
0	-7.01495e-05	2	7.04243e-05	-13	-2.7e-13
0	-7.05108e-05	2	7.03821e-05	-12.9	-2.2e-13
0	-7.03243e-05	2	7.03721e-05	-12.8	-2.3e-13
0	-7.03758e-05	2	7.03401e-05	-12.7	-1.9e-13
0	-7.03397e-05	2	7.03995e-05	-12.6	-2.2e-13
0	-7.06144e-05	2	7.06922e-05	-12.5	-2e-13
0	-7.06564e-05	2	7.07377e-05	-12.4	-2.4e-13
0	-7.06786e-05	2	7.06894e-05	-12.3	-2.2e-13
0	-7.06457e-05	2	7.06499e-05	-12.2	-2.3e-13
0	-7.05863e-05	2	7.0595e-05	-12.1	-2e-13
0	-7.05992e-05	2	7.04879e-05	-12	-2.2e-13
0	-7.02199e-05	2	7.02292e-05	-11.9	-2.3e-13
0	-7.04015e-05	2	7.02988e-05	-11.8	-2.1e-13
0	-7.03653e-05	2	7.04285e-05	-11.7	-1.7e-13
0	-7.02284e-05	2	7.03372e-05	-11.6	-2.1e-13
0	-7.01884e-05	2	7.01898e-05	-11.5	-1.4e-13
0	-7.0274e-05	2	7.03292e-05	-11.4	-2e-13
0	-7.01483e-05	2	7.02062e-05	-11.3	-2e-13
0	-7.01185e-05	2	7.0095e-05	-11.2	-1.7e-13
0	-7.01077e-05	2	7.01177e-05	-11.1	-1.4e-13
0	-7.01051e-05	2	7.01316e-05	-11	-1.5e-13
0	-7.01632e-05	2	7.0193e-05	-10.9	-1.9e-13
0	-7.00395e-05	2	6.99738e-05	-10.8	-1.9e-13
0	-6.99428e-05	2	6.99582e-05	-10.7	-1.7e-13
0	-6.9897e-05	2	6.9916e-05	-10.6	-1.6e-13
0	-7.00017e-05	2	6.99025e-05	-10.5	-1.2e-13
0	-7.00666e-05	2	7.00579e-05	-10.4	-1.6e-13
0	-7.00422e-05	2	7.00338e-05	-10.3	-1.4e-13
0	-7.01076e-05	2	7.00624e-05	-10.2	-1.8e-13
0	-7.01152e-05	2	7.00974e-05	-10.1	-1.9e-13
0	-7.01611e-05	2	7.01429e-05	-10	-1.3e-13
0	-7.01694e-05	2	7.02621e-05	-9.9	-1.7e-13
0	-7.04017e-05	2	7.04189e-05	-9.8	-1.6e-13
0	-7.05098e-05	2	7.05193e-05	-9.7	-1.2e-13
0	-7.03629e-05	2	7.03519e-05	-9.6	-1.2e-13
0	-7.04511e-05	2	7.03265e-05	-9.5	-1.6e-13
0	-7.03877e-05	2	7.03321e-05	-9.4	-1.4e-13
0	-7.03379e-05	2	7.03434e-05	-9.3	-1.4e-13
0	-7.01047e-05	2	7.02981e-05	-9.2	-1.4e-13
0	-7.02531e-05	2	7.02786e-05	-9.1	-1.3e-13
0	-7.03506e-05	2	7.04299e-05	-9	-1.3e-13
0	-7.03775e-05	2	7.03025e-05	-8.9	-1.5e-13
0	-7.02401e-05	2	7.03163e-05	-8.8	-1.6e-13
0	-7.03128e-05	2	7.03254e-05	-8.7	-1.1e-13
0	-7.03343e-05	2	7.03372e-05	-8.6	-1.4e-13
0	-7.02589e-05	2	7.02845e-05	-8.5	-1.5e-13
0	-7.03262e-05	2	7.0398e-05	-8.4	-1.8e-13
0	-7.03113e-05	2	7.03728e-05	-8.3	-1.2e-13
0	-7.02496e-05	2	7.02625e-05	-8.2	-1.1e-13
0	-7.02051e-05	2	7.02952e-05	-8.1	-1.4e-13
0	-7.02579e-05	2	7.02598e-05	-8	-1.3e-13
0	-7.017e-05	2	7.02109e-05	-7.9	-1.3e-13
0	-7.02172e-05	2	7.03307e-05	-7.8	-1.2e-13
0	-7.02838e-05	2	7.02391e-05	-7.7	-1.1e-13
0	-7.01212e-05	2	7.00902e-05	-7.6	-1.1e-13
0	-7.02172e-05	2	7.0326e-05	-7.5	-1.2e-13
0	-7.03255e-05	2	7.0366e-05	-7.4	-1.2e-13
0	-7.01642e-05	2	7.01836e-05	-7.3	-1.1e-13
0	-7.02251e-05	2	7.01296e-05	-7.2	-1.1e-13
0	-7.01608e-05	2	7.01381e-05	-7.1	-1.3e-13
0	-7.00946e-05	2	7.0235e-05	-7	-9e-14
0	-7.01564e-05	2	7.01545e-05	-6.9	-9e-14
0	-7.02278e-05	2	7.02451e-05	-6.8	-9e-14
0	-7.01874e-05	2	7.01099e-05	-6.7	-1.1e-13
0	-7.01785e-05	2	7.01776e-05	-6.6	-1.2e-13
0	-7.0194e-05	2	7.01486e-05	-6.5	-7e-14
0	-7.02128e-05	2	7.03795e-05	-6.4	-9e-14
0	-7.05195e-05	2	7.04286e-05	-6.3	-1e-13
0	-7.04453e-05	2	7.04157e-05	-6.2	-1.1e-13
0	-7.04039e-05	2	7.04524e-05	-6.1	-1.2e-13
0	-7.04086e-05	2	7.04858e-05	-6	-1e-13
0	-7.04527e-05	2	7.04151e-05	-5.9	-6e-14
0	-7.04703e-05	2	7.0464e-05	-5.8	-8e-14
0	-7.04315e-05	2	7.04597e-05	-5.7	-1.7e-13
0	-7.04638e-05	2	7.0407e-05	-5.6	-8e-14
0	-7.04069e-05	2	7.03838e-05	-5.5	-6e-14
0	-7.03893e-05	2	7.03794e-05	-5.4	-9e-14
0	-7.05277e-05	2	7.06255e-05	-5.3	-7e-14
0	-7.06092e-05	2	7.05814e-05	-5.2	-9e-14
0	-7.06003e-05	2	7.05481e-05	-5.1	-5e-14
0	-7.06302e-05	2	7.06863e-05	-5	-1e-13
0	-7.05884e-05	2	7.06236e-05	-4.9	-4e-14
0	-7.06108e-05	2	7.06327e-05	-4.8	-6e-14
0	-7.06582e-05	2	7.06999e-05	-4.7	-5e-14
0	-7.04884e-05	2	7.05191e-05	-4.6	-9e-14
0	-7.05901e-05	2	7.05718e-05	-4.5	-1.1e-13
0	-7.05915e-05	2	7.05715e-05	-4.4	-8e-14
0	-7.05341e-05	2	7.04967e-05	-4.3	-7e-14
0	-7.04465e-05	2	7.05048e-05	-4.2	-8e-14
0	-7.04265e-05	2	7.04874e-05	-4.1	-6e-14
0	-7.04539e-05	2	7.04243e-05	-4	-8e-14
0	-7.03802e-05	2	7.04042e-05	-3.9	-8e-14
0	-7.0436e-05	2	7.05413e-05	-3.8	-4e-14
0	-7.04706e-05	2	7.04606e-05	-3.7	-6e-14
0	-7.04129e-05	2	7.04457e-05	-3.6	-7e-14
0	-7.04472e-05	2	7.04974e-05	-3.5	-7e-14
0	-7.03236e-05	2	7.0349e-05	-3.4	-1e-13
0	-7.03581e-05	2	7.04171e-05	-3.3	-1e-13
0	-7.03583e-05	2	7.04198e-05	-3.2	-2e-14
0	-7.03355e-05	2	7.03417e-05	-3.1	-8e-14
0	-7.04818e-05	2	7.04064e-05	-3	-8e-14
0	-7.04319e-05	2	7.03229e-05	-2.9	-5e-14
0	-7.05853e-05	2	7.06266e-05	-2.8	-5e-14
0	-7.04876e-05	2	7.05383e-05	-2.7	-7e-14
0	-7.0603e-05	2	7.05535e-05	-2.6	-6e-14
0	-7.05274e-05	2	7.05643e-05	-2.5	-6e-14
0	-7.05852e-05	2	7.05129e-05	-2.4	-7e-14
0	-7.04204e-05	2	7.04599e-05	-2.3	-7e-14
0	-7.05873e-05	2	7.05574e-05	-2.2	-6e-14
0	-7.06646e-05	2	7.0598e-05	-2.1	-4e-14
0	-7.05448e-05	2	7.06005e-05	-2	-6e-14
0	-7.0584e-05	2	7.05779e-05	-1.9	-6e-14
0	-7.04866e-05	2	7.05244e-05	-1.8	-4e-14
0	-7.05341e-05	2	7.05915e-05	-1.7	-6e-14
0	-7.04209e-05	2	7.03928e-05	-1.6	-1e-14
0	-7.06264e-05	2	7.06052e-05	-1.5	0
0	-7.06425e-05	2	7.05462e-05	-1.4	-2e-14
0	-7.06346e-05	2	7.06398e-05	-1.3	-4e-14
0	-7.05885e-05	2	7.05478e-05	-1.2	-1e-14
0	-7.05709e-05	2	7.05924e-05	-1.1	-4e-14
0	-7.05696e-05	2	7.05862e-05	-1	-6e-14
0	-7.05206e-05	2	7.05814e-05	-0.9	-6e-14
0	-7.06212e-05	2	7.06027e-05	-0.8	-6e-14
0	-7.06471e-05	2	7.06018e-05	-0.7	-5e-14
0	-7.05658e-05	2	7.0669e-05	-0.6	-3e-14
0	-7.05393e-05	2	7.05441e-05	-0.5	-1e-14
0	-7.05718e-05	2	7.06535e-05	-0.4	0
0	-7.07305e-05	2	7.07239e-05	-0.3	-2e-14
0	-7.06982e-05	2	7.07485e-05	-0.2	-4e-14
0	-7.07527e-05	2	7.07284e-05	-0.1	-1e-14
0	-7.06962e-05	2	7.07099e-05	0	-3e-14
0	-7.06949e-05	2	7.07518e-05	0.1	-4e-14
0	-7.06613e-05	2	7.06421e-05	0.2	-1e-14
0	-7.0639e-05	2	7.06383e-05	0.3	-1e-14
0	-7.06114e-05	2	7.05888e-05	0.4	-6e-14
0	-7.0674e-05	2	7.06779e-05	0.5	-2e-14
0	-7.07092e-05	2	7.06653e-05	0.6	-3e-14
0	-7.05717e-05	2	7.06164e-05	0.7	-4e-14
0	-7.05378e-05	2	7.05452e-05	0.8	0
0	-7.0612e-05	2	7.05498e-05	0.9	-2e-14
0	-7.05658e-05	2	7.05211e-05	1	-2e-14
0	-7.05438e-05	2	7.06015e-05	1.1	-2e-14
0	-7.06627e-05	2	7.05592e-05	1.2	1e-14
0	-7.05388e-05	2	7.05134e-05	1.3	1e-14
0	-7.05805e-05	2	7.06575e-05	1.4	0
0	-7.07256e-05	2	7.06779e-05	1.5	4e-14
0	-7.05579e-05	2	7.05345e-05	1.6	-1e-14
0	-7.04675e-05	2	7.04763e-05	1.7	-3e-14
0	-7.04132e-05	2	7.04495e-05	1.8	-1e-14
0	-7.03906e-05	2	7.03945e-05	1.9	2e-14
0	-7.05698e-05	2	7.05262e-05	2	1e-14
0	-7.04956e-05	2	7.04454e-05	2	1e-14
0	-7.0471e-05	2	7.04742e-05	1.9	1e-14
0	-7.04827e-05	2	7.04733e-05	1.8	3e-14
0	-7.04893e-05	2	7.05304e-05	1.7	-2e-14
0	-7.05638e-05	2	7.05575e-05	1.6	1e-14
0	-7.04949e-05	2	7.05473e-05	1.5	1e-14
0	-7.06132e-05	2	7.05783e-05	1.4	1e-14
0	-7.05961e-05	2	7.0661e-05	1.3	-1e-14
0	-7.06326e-05	2	7.06188e-05	1.2	-1e-14
0	-7.06152e-05	2	7.06176e-05	1.1	-3e-14
0	-7.06487e-05	2	7.07186e-05	1	-2e-14
0	-7.08775e-05	2	7.08072e-05	0.9	-2e-14
0	-7.07178e-05	2	7.08395e-05	0.8	0
0	-7.07959e-05	2	7.07336e-05	0.7	-1e-14
0	-7.0762e-05	2	7.07263e-05	0.6	-1e-14
0	-7.07834e-05	2	7.07522e-05	0.5	2e-14
0	-7.07259e-05	2	7.0669e-05	0.4	-2e-14
0	-7.0566e-05	2	7.05585e-05	0.3	-2e-14
0	-7.06227e-05	2	7.06669e-05	0.2	-4e-14
0	-7.05939e-05	2	7.06157e-05	0.1	-1e-14
0	-7.05326e-05	2	7.05274e-05	0	-5e-14
0	-7.05422e-05	2	7.06141e-05	-0.1	-2e-14
0	-7.06938e-05	2	7.06896e-05	-0.2	-2e-14
0	-7.06539e-05	2	7.06917e-05	-0.3	-1e-14
0	-7.07102e-05	2	7.06403e-05	-0.4	-2e-14
0	-7.06772e-05	2	7.06741e-05	-0.5	-2e-14
0	-7.06936e-05	2	7.07675e-05	-0.6	-3e-14
0	-7.06868e-05	2	7.06144e-05	-0.7	-3e-14
0	-7.06291e-05	2	7.06446e-05	-0.8	-3e-14
0	-7.0609e-05	2	7.04855e-05	-0.9	-5e-14
0	-7.06547e-05	2	7.054e-05	-1	0
0	-7.06372e-05	2	7.07429e-05	-1.1	-5e-14
0	-7.05741e-05	2	7.07184e-05	-1.2	-3e-14
0	-7.06338e-05	2	7.06608e-05	-1.3	-3e-14
0	-7.06272e-05	2	7.07057e-05	-1.4	1e-14
0	-7.07326e-05	2	7.06865e-05	-1.5	-8e-14
0	-7.04915e-05	2	7.0334e-05	-1.6	-5e-14
0	-7.04738e-05	2	7.04678e-05	-1.7	-8e-14
0	-7.04269e-05	2	7.04297e-05	-1.8	-6e-14
0	-7.04489e-05	2	7.0453e-05	-1.9	-1e-14
0	-7.04717e-05	2	7.04113e-05	-2	-2e-14
0	-7.0388e-05	2	7.04367e-05	-2.1	-2e-14
0	-7.04638e-05	2	7.05082e-05	-2.2	-4e-14
0	-7.04378e-05	2	7.03337e-05	-2.3	-6e-14
0	-7.04936e-05	2	7.05364e-05	-2.4	-4e-14
0	-7.0609e-05	2	7.05125e-05	-2.5	-5e-14
0	-7.04935e-05	2	7.0457e-05	-2.6	-2e-14
0	-7.05047e-05	2	7.04926e-05	-2.7	-6e-14
0	-7.03253e-05	2	7.04316e-05	-2.8	-6e-14
0	-7.04192e-05	2	7.04213e-05	-2.9	-6e-14
0	-7.05785e-05	2	7.05247e-05	-3	-6e-14
0	-7.05753e-05	2	7.05872e-05	-3.1	-4e-14
0	-7.05361e-05	2	7.05151e-05	-3.2	-8e-14
0	-7.0448e-05	2	7.06151e-05	-3.3	-4e-14
0	-7.04312e-05	2	7.04389e-05	-3.4	-8e-14
0	-7.02805e-05	2	7.03774e-05	-3.5	-5e-14
0	-7.03937e-05	2	7.04248e-05	-3.6	-5e-14
0	-7.05401e-05	2	7.04856e-05	-3.7	-2e-14
0	-7.04907e-05	2	7.05157e-05	-3.8	-6e-14
0	-7.06702e-05	2	7.06312e-05	-3.9	-6e-14
0	-7.05915e-05	2	7.05781e-05	-4	-8e-14
0	-7.04838e-05	2	7.05076e-05	-4.1	-6e-14
0	-7.04937e-05	2	7.04105e-05	-4.2	-4e-14
0	-7.04697e-05	2	7.0474e-05	-4.3	-5e-14
0	-7.06179e-05	2	7.04923e-05	-4.4	-6e-14
0	-7.05709e-05	2	7.05813e-05	-4.5	-7e-14
0	-7.04842e-05	2	7.05472e-05	-4.6	-4e-14
0	-7.05742e-05	2	7.05471e-05	-4.7	-7e-14
0	-7.05521e-05	2	7.05347e-05	-4.8	-7e-14
0	-7.05994e-05	2	7.06204e-05	-4.9	-8e-14
0	-7.0675e-05	2	7.06489e-05	-5	-1.1e-13
0	-7.059e-05	2	7.05356e-05	-5.1	-6e-14
0	-7.06431e-05	2	7.07056e-05	-5.2	-8e-14
0	-7.07389e-05	2	7.06895e-05	-5.3	-8e-14
0	-7.07674e-05	2	7.05542e-05	-5.4	-8e-14
0	-7.04676e-05	2	7.05631e-05	-5.5	-1.4e-13
0	-7.05258e-05	2	7.04948e-05	-5.6	-6e-14
0	-7.04924e-05	2	7.04682e-05	-5.7	-1.2e-13
0	-7.05584e-05	2	7.05941e-05	-5.8	-1.4e-13
0	-7.05389e-05	2	7.06241e-05	-5.9	-7e-14
0	-7.04856e-05	2	7.05142e-05	-6	-1.1e-13
0	-7.03716e-05	2	7.03981e-05	-6.1	-8e-14
0	-7.05171e-05	2	7.03092e-05	-6.2	-8e-14
0	-7.02861e-05	2	7.03251e-05	-6.3	-5e-14
0	-7.05374e-05	2	7.05971e-05	-6.4	-1.3e-13
0	-7.0612e-05	2	7.0583e-05	-6.5	-7e-14
0	-7.04911e-05	2	7.04626e-05	-6.6	-1.2e-13
0	-7.04703e-05	2	7.03973e-05	-6.7	-7e-14
0	-7.05134e-05	2	7.06118e-05	-6.8	-1.3e-13
0	-7.03382e-05	2	7.03956e-05	-6.9	-7e-14
0	-7.04806e-05	2	7.05313e-05	-7	-1.1e-13
0	-7.03774e-05	2	7.04877e-05	-7.1	-1.3e-13
0	-7.04756e-05	2	7.04812e-05	-7.2	-1.3e-13
0	-7.06295e-05	2	7.0545e-05	-7.3	-1.1e-13
0	-7.05311e-05	2	7.05301e-05	-7.4	-1.2e-13
0	-7.05796e-05	2	7.05387e-05	-7.5	-1.2e-13
0	-7.04907e-05	2	7.05697e-05	-7.6	-1.2e-13
0	-7.05167e-05	2	7.0564e-05	-7.7	-1.1e-13
0	-7.06209e-05	2	7.05646e-05	-7.8	-1.2e-13
0	-7.05618e-05	2	7.05943e-05	-7.9	-1e-13
0	-7.0483e-05	2	7.05328e-05	-8	-1e-13
0	-7.05825e-05	2	7.05596e-05	-8.1	-1e-13
0	-7.05089e-05	2	7.04938e-05	-8.2	-1.3e-13
0	-7.05116e-05	2	7.05059e-05	-8.3	-1.7e-13
0	-7.05218e-05	2	7.05951e-05	-8.4	-1.6e-13
0	-7.0627e-05	2	7.06925e-05	-8.5	-1.3e-13
0	-7.07185e-05	2	7.07328e-05	-8.6	-1.6e-13
0	-7.08315e-05	2	7.0677e-05	-8.7	-1.4e-13
0	-7.06842e-05	2	7.06722e-05	-8.8	-1.6e-13
0	-7.05758e-05	2	7.05927e-05	-8.9	-1.6e-13
0	-7.06396e-05	2	7.05377e-05	-9	-1.8e-13
0	-7.0551e-05	2	7.05815e-05	-9.1	-9e-14
0	-7.0623e-05	2	7.05556e-05	-9.2	-1.3e-13
0	-7.05181e-05	2	7.05211e-05	-9.3	-1.2e-13
0	-7.06255e-05	2	7.06031e-05	-9.4	-1.2e-13
0	-7.05127e-05	2	7.0567e-05	-9.5	-1.6e-13
0	-7.05236e-05	2	7.05334e-05	-9.6	-1.9e-13
0	-7.05693e-05	2	7.05116e-05	-9.7	-1.2e-13
0	-7.05523e-05	2	7.05607e-05	-9.8	-1.3e-13
0	-7.06469e-05	2	7.06405e-05	-9.9	-1.5e-13
0	-7.0462e-05	2	7.04615e-05	-10	-1.6e-13
0	-7.05233e-05	2	7.04667e-05	-10.1	-1.8e-13
0	-7.05447e-05	2	7.04728e-05	-10.2	-1.6e-13
0	-7.0485e-05	2	7.05242e-05	-10.3	-1.7e-13
0	-7.04933e-05	2	7.05236e-05	-10.4	-1.5e-13
0	-7.06467e-05	2	7.07608e-05	-10.5	-1.8e-13
0	-7.07521e-05	2	7.07585e-05	-10.6	-1.8e-13
0	-7.07401e-05	2	7.07432e-05	-10.7	-1.6e-13
0	-7.07761e-05	2	7.0842e-05	-10.8	-1.8e-13
0	-7.07725e-05	2	7.07883e-05	-10.9	-2.3e-13
0	-7.05614e-05	2	7.07102e-05	-11	-2e-13
0	-7.04647e-05	2	7.05302e-05	-11.1	-2.3e-13
0	-7.04248e-05	2	7.0425e-05	-11.2	-1.9e-13
0	-7.04127e-05	2	7.04547e-05	-11.3	-2.2e-13
0	-7.03536e-05	2	7.03632e-05	-11.4	-1.8e-13
0	-7.06983e-05	2	7.06891e-05	-11.5	-1.6e-13
0	-7.05774e-05	2	7.0629e-05	-11.6	-1.3e-13
0	-7.07125e-05	2	7.0714e-05	-11.7	-1.3e-13
0	-7.07404e-05	2	7.07329e-05	-11.8	-1.9e-13
0	-7.07704e-05	2	7.07728e-05	-11.9	-2e-13
0	-7.07838e-05	2	7.07918e-05	-12	-2.6e-13
0	-7.08174e-05	2	7.07825e-05	-12.1	-2e-13
0	-7.07793e-05	2	7.08357e-05	-12.2	-2.3e-13
0	-7.09341e-05	2	7.09786e-05	-12.3	-2.3e-13
0	-7.08878e-05	2	7.0887e-05	-12.4	-1.8e-13
0	-7.07549e-05	2	7.07585e-05	-12.5	-1.9e-13
0	-7.08093e-05	2	7.07772e-05	-12.6	-2.8e-13
0	-7.05116e-05	2	7.0345e-05	-12.7	-2e-13
0	-7.06605e-05	2	7.06149e-05	-12.8	-2.2e-13
0	-7.06388e-05	2	7.06818e-05	-12.9	-2.6e-13
0	-7.0632e-05	2	7.0636e-05	-13	-1.9e-13
0	-7.06517e-05	2	7.06955e-05	-13.1	-2.6e-13
0	-7.05727e-05	2	7.06153e-05	-13.2	-1.9e-13
0	-7.05146e-05	2	7.05203e-05	-13.3	-2.3e-13
0	-7.06388e-05	2	7.05654e-05	-13.4	-2e-13
0	-7.05622e-05	2	7.05398e-05	-13.5	-2.3e-13
0	-7.05573e-05	2	7.05196e-05	-13.6	-2.4e-13
0	-7.05793e-05	2	7.05515e-05	-13.7	-2.6e-13
0	-7.05776e-05	2	7.06174e-05	-13.8	-2.8e-13
0	-7.06179e-05	2	7.05465e-05	-13.9	-2.2e-13
0	-7.0566e-05	2	7.05708e-05	-14	-2.7e-13
0	-7.05487e-05	2	7.05591e-05	-14.1	-2.9e-13
0	-7.06075e-05	2	7.06087e-05	-14.2	-2.6e-13
0	-7.05628e-05	2	7.05318e-05	-14.3	-2.6e-13
0	-7.06121e-05	2	7.06065e-05	-14.4	-2.2e-13
0	-7.06307e-05	2	7.05304e-05	-14.5	-2.9e-13
0	-7.05514e-05	2	7.05232e-05	-14.6	-2.7e-13
0	-7.05808e-05	2	7.06381e-05	-14.7	-2.9e-13
0	-7.06448e-05	2	7.06861e-05	-14.8	-2.4e-13
0	-7.07321e-05	2	7.07337e-05	-14.9	-3e-13
0	-7.06416e-05	2	7.06652e-05	-15	-2.9e-13
