Vs	Is	Vd	Id	Vg	Ig	
V	A	V	A	V	A	
0	-6.6187e-05	2	6.59531e-05	2	1e-14
0	-6.62733e-05	2	6.61132e-05	1.9	-4e-14
0	-6.62307e-05	2	6.61285e-05	1.8	-5e-14
0	-6.59045e-05	2	6.60053e-05	1.7	-1e-14
0	-6.62906e-05	2	6.62308e-05	1.6	-6e-14
0	-6.63314e-05	2	6.59681e-05	1.5	1e-14
0	-6.60603e-05	2	6.59514e-05	1.4	-7e-14
0	-6.62016e-05	2	6.60939e-05	1.3	1e-14
0	-6.6037e-05	2	6.57156e-05	1.2	0
0	-6.6095e-05	2	6.59376e-05	1.1	-1.4e-13
0	-6.58042e-05	2	6.57954e-05	1	-6e-14
0	-6.61407e-05	2	6.61375e-05	0.9	-8e-14
0	-6.62721e-05	2	6.61346e-05	0.8	-1e-14
0	-6.61598e-05	2	6.63803e-05	0.7	-2e-14
0	-6.60793e-05	2	6.60561e-05	0.6	-4e-14
0	-6.64234e-05	2	6.65693e-05	0.5	-3e-14
0	-6.66058e-05	2	6.65793e-05	0.4	-5e-14
0	-6.64766e-05	2	6.63511e-05	0.3	-7e-14
0	-6.63503e-05	2	6.62087e-05	0.2	-1.3e-13
0	-6.56178e-05	2	6.55351e-05	0.1	-1.9e-13
0	-6.56971e-05	2	6.55117e-05	0	-8e-14
0	-6.54901e-05	2	6.55519e-05	-0.1	-1.4e-13
0	-6.60081e-05	2	6.60742e-05	-0.2	-1.3e-13
0	-6.59074e-05	2	6.57456e-05	-0.3	-9e-14
0	-6.63801e-05	2	6.62486e-05	-0.4	-1.3e-13
0	-6.67411e-05	2	6.66777e-05	-0.5	-1.2e-13
0	-6.67436e-05	2	6.67434e-05	-0.6	-6e-14
0	-6.64814e-05	2	6.63723e-05	-0.7	-1.1e-13
0	-6.62332e-05	2	6.63769e-05	-0.8	-9e-14
0	-6.66117e-05	2	6.64654e-05	-0.9	-1.2e-13
0	-6.64249e-05	2	6.64551e-05	-1	-1.9e-13
0	-6.63682e-05	2	6.64439e-05	-1.1	-1.6e-13
0	-6.68982e-05	2	6.68892e-05	-1.2	-4e-14
0	-6.63401e-05	2	6.62628e-05	-1.3	-1.7e-13
0	-6.60457e-05	2	6.61381e-05	-1.4	-1.7e-13
0	-6.62804e-05	2	6.6499e-05	-1.5	-2.1e-13
0	-6.69959e-05	2	6.70136e-05	-1.6	-1.7e-13
0	-6.68895e-05	2	6.71354e-05	-1.7	-1.4e-13
0	-6.69035e-05	2	6.68873e-05	-1.8	-2e-13
0	-6.67693e-05	2	6.64515e-05	-1.9	-2.4e-13
0	-6.62825e-05	2	6.65549e-05	-2	-2.6e-13
0	-6.63537e-05	2	6.64061e-05	-2.1	-2.4e-13
0	-6.66719e-05	2	6.66419e-05	-2.2	-1.7e-13
0	-6.66325e-05	2	6.66831e-05	-2.3	-1.8e-13
0	-6.63512e-05	2	6.64008e-05	-2.4	-2.1e-13
0	-6.63431e-05	2	6.61211e-05	-2.5	-2.2e-13
0	-6.59418e-05	2	6.61054e-05	-2.6	-4e-13
0	-6.6245e-05	2	6.62005e-05	-2.7	-2.9e-13
0	-6.61547e-05	2	6.60331e-05	-2.8	-3e-13
0	-6.65518e-05	2	6.65987e-05	-2.9	-3e-13
0	-6.63993e-05	2	6.65526e-05	-3	-3.3e-13
0	-6.64024e-05	2	6.63184e-05	-3.1	-3e-13
0	-6.62313e-05	2	6.65881e-05	-3.2	-3.8e-13
0	-6.64001e-05	2	6.6473e-05	-3.3	-4.3e-13
0	-6.64847e-05	2	6.64347e-05	-3.4	-3.8e-13
0	-6.62927e-05	2	6.62947e-05	-3.5	-3.8e-13
0	-6.63858e-05	2	6.65279e-05	-3.6	-4.3e-13
0	-6.64048e-05	2	6.64696e-05	-3.7	-5.3e-13
0	-6.63444e-05	2	6.62557e-05	-3.8	-4.9e-13
0	-6.63956e-05	2	6.62544e-05	-3.9	-4.6e-13
0	-6.61724e-05	2	6.60927e-05	-4	-5.6e-13
0	-6.60054e-05	2	6.60557e-05	-4.1	-5.9e-13
0	-6.60253e-05	2	6.58977e-05	-4.2	-6.6e-13
0	-6.63033e-05	2	6.61412e-05	-4.3	-6.3e-13
0	-6.58614e-05	2	6.59239e-05	-4.4	-8.2e-13
0	-6.58736e-05	2	6.58205e-05	-4.5	-7.8e-13
0	-6.59673e-05	2	6.5939e-05	-4.6	-9.1e-13
0	-6.58853e-05	2	6.59492e-05	-4.7	-9.3e-13
0	-6.59718e-05	2	6.60132e-05	-4.8	-9.9e-13
0	-6.5888e-05	2	6.58423e-05	-4.9	-1.04e-12
0	-6.60986e-05	2	6.61939e-05	-5	-1.09e-12
0	-6.60057e-05	2	6.60356e-05	-5.1	-1.07e-12
0	-6.62962e-05	2	6.63847e-05	-5.2	-1.2e-12
0	-6.6525e-05	2	6.66193e-05	-5.3	-1.26e-12
0	-6.68941e-05	2	6.69307e-05	-5.4	-1.32e-12
0	-6.66968e-05	2	6.67455e-05	-5.5	-1.45e-12
0	-6.65113e-05	2	6.66225e-05	-5.6	-1.49e-12
0	-6.65176e-05	2	6.65574e-05	-5.7	-1.53e-12
0	-6.66666e-05	2	6.64762e-05	-5.8	-1.64e-12
0	-6.6586e-05	2	6.63377e-05	-5.9	-1.79e-12
0	-6.65437e-05	2	6.65416e-05	-6	-1.87e-12
0	-6.65114e-05	2	6.63687e-05	-6.1	-2.13e-12
0	-6.64521e-05	2	6.6292e-05	-6.2	-2.11e-12
0	-6.59395e-05	2	6.59698e-05	-6.3	-2.18e-12
0	-6.62123e-05	2	6.61835e-05	-6.4	-2.17e-12
0	-6.58919e-05	2	6.59879e-05	-6.5	-2.25e-12
0	-6.60037e-05	2	6.59682e-05	-6.6	-2.37e-12
0	-6.57662e-05	2	6.58278e-05	-6.7	-2.44e-12
0	-6.57337e-05	2	6.55928e-05	-6.8	-2.49e-12
0	-6.57159e-05	2	6.59397e-05	-6.9	-2.7e-12
0	-6.56633e-05	2	6.57709e-05	-7	-2.78e-12
0	-6.5864e-05	2	6.57439e-05	-7.1	-2.93e-12
0	-6.57753e-05	2	6.58599e-05	-7.2	-3e-12
0	-6.55685e-05	2	6.56186e-05	-7.3	-3.37e-12
0	-6.54943e-05	2	6.55803e-05	-7.4	-3.37e-12
0	-6.54893e-05	2	6.55395e-05	-7.5	-3.46e-12
0	-6.55141e-05	2	6.54534e-05	-7.6	-3.53e-12
0	-6.55731e-05	2	6.56918e-05	-7.7	-3.78e-12
0	-6.54549e-05	2	6.55117e-05	-7.8	-3.89e-12
0	-6.55237e-05	2	6.54241e-05	-7.9	-4e-12
0	-6.55326e-05	2	6.53552e-05	-8	-4.28e-12
0	-6.53145e-05	2	6.54309e-05	-8.1	-4.47e-12
0	-6.54537e-05	2	6.52563e-05	-8.2	-4.9e-12
0	-6.54323e-05	2	6.53497e-05	-8.3	-4.98e-12
0	-6.51412e-05	2	6.51199e-05	-8.4	-5.21e-12
0	-6.52116e-05	2	6.54401e-05	-8.5	-5.07e-12
0	-6.52959e-05	2	6.52175e-05	-8.6	-5.16e-12
0	-6.50049e-05	2	6.49913e-05	-8.7	-5.27e-12
0	-6.47397e-05	2	6.48007e-05	-8.8	-5.64e-12
0	-6.48431e-05	2	6.49059e-05	-8.9	-5.93e-12
0	-6.46877e-05	2	6.47198e-05	-9	-6.79e-12
0	-6.46171e-05	2	6.44446e-05	-9.1	-6.91e-12
0	-6.46183e-05	2	6.46875e-05	-9.2	-6.93e-12
0	-6.44814e-05	2	6.45211e-05	-9.3	-6.77e-12
0	-6.46433e-05	2	6.45368e-05	-9.4	-7.07e-12
0	-6.45344e-05	2	6.46107e-05	-9.5	-7.7e-12
0	-6.44657e-05	2	6.45269e-05	-9.6	-7.87e-12
0	-6.43747e-05	2	6.47718e-05	-9.7	-8.53e-12
0	-6.49394e-05	2	6.50846e-05	-9.8	-8.59e-12
0	-6.48617e-05	2	6.49185e-05	-9.9	-9.3e-12
0	-6.47266e-05	2	6.47801e-05	-10	-1.015e-11
0	-6.4688e-05	2	6.467e-05	-10.1	-1.109e-11
0	-6.43563e-05	2	6.47594e-05	-10.2	-1.093e-11
0	-6.44518e-05	2	6.43909e-05	-10.3	-1.442e-11
0	-6.43589e-05	2	6.41976e-05	-10.4	-1.352e-11
0	-6.44994e-05	2	6.45986e-05	-10.5	-3.091e-11
0	-6.46232e-05	2	6.4681e-05	-10.6	-2.317e-11
0	-6.44202e-05	2	6.42355e-05	-10.7	-8.069e-11
0	-6.4308e-05	2	6.42506e-05	-10.8	-6.072e-11
0	-6.42491e-05	2	6.41166e-05	-10.9	-5.68e-11
0	-6.42161e-05	2	6.42631e-05	-11	-3.937e-11
0	-6.42852e-05	2	6.41029e-05	-11.1	-1.3876e-10
0	-6.42056e-05	2	6.43614e-05	-11.2	-9.974e-11
0	-6.4219e-05	2	6.42291e-05	-11.3	-9.03e-11
0	-6.4111e-05	2	6.41013e-05	-11.4	-7.837e-11
0	-6.41515e-05	2	6.40567e-05	-11.5	-9.569e-11
0	-6.4158e-05	2	6.4161e-05	-11.6	-1.9553e-10
0	-6.41759e-05	2	6.41865e-05	-11.7	-4.3164e-10
0	-6.41398e-05	2	6.43124e-05	-11.8	-8.9635e-10
0	-6.41429e-05	2	6.40616e-05	-11.9	-5.512e-10
0	-6.39522e-05	2	6.39343e-05	-12	-7.033e-10
0	-6.39645e-05	2	6.37505e-05	-12.1	-8.3578e-10
0	-6.37409e-05	2	6.35344e-05	-12.2	-1.05068e-09
0	-6.35569e-05	2	6.35244e-05	-12.3	-1.1067e-09
0	-6.38073e-05	2	6.38044e-05	-12.4	-6.7815e-10
0	-6.36728e-05	2	6.36557e-05	-12.5	-2.35496e-09
0	-6.38552e-05	2	6.37699e-05	-12.6	-5.06011e-09
0	-6.36583e-05	2	6.37252e-05	-12.7	-2.70261e-09
0	-6.37254e-05	2	6.36345e-05	-12.8	-5.6493e-09
0	-6.35105e-05	2	6.36441e-05	-12.9	-5.67711e-09
0	-6.34248e-05	2	6.33425e-05	-13	-1.023449e-08
0	-6.33364e-05	2	6.34183e-05	-13.1	-1.60655e-08
0	-6.33146e-05	2	6.33101e-05	-13.2	-1.39977e-08
0	-6.33572e-05	2	6.34389e-05	-13.3	-1.43617e-08
0	-6.31593e-05	2	6.33482e-05	-13.4	-1.84749e-08
0	-6.30899e-05	2	6.31742e-05	-13.5	-2.23062e-08
0	-6.32027e-05	2	6.31398e-05	-13.6	-1.43463e-08
0	-6.30634e-05	2	6.3032e-05	-13.7	-3.21321e-08
0	-6.29141e-05	2	6.28194e-05	-13.8	-2.67492e-08
0	-6.30487e-05	2	6.31349e-05	-13.9	-1.92385e-08
0	-6.29962e-05	2	6.30479e-05	-14	-1.3278e-08
0	-6.30099e-05	2	6.30167e-05	-14.1	-1.59843e-08
0	-6.29691e-05	2	6.29248e-05	-14.2	-1.88518e-08
0	-6.30336e-05	2	6.30422e-05	-14.3	-2.00573e-08
0	-6.29441e-05	2	6.29298e-05	-14.4	-2.27532e-08
0	-6.28312e-05	2	6.29329e-05	-14.5	-2.10109e-08
0	-6.28762e-05	2	6.2888e-05	-14.6	-2.6269e-08
0	-6.29482e-05	2	6.30069e-05	-14.7	-3.08315e-08
0	-6.30044e-05	2	6.31837e-05	-14.8	-2.32269e-08
0	-6.30652e-05	2	6.30833e-05	-14.9	-6.48631e-08
0	-6.29327e-05	2	6.30118e-05	-15	-5.18441e-08
0	-6.29916e-05	2	6.30811e-05	-15	-8.00826e-08
0	-6.28216e-05	2	6.3023e-05	-14.9	-8.63354e-08
0	-6.31618e-05	2	6.31723e-05	-14.8	-8.11618e-08
0	-6.28513e-05	2	6.32248e-05	-14.7	-9.6305e-08
0	-6.28128e-05	2	6.27655e-05	-14.6	-1.09422e-07
0	-6.28675e-05	2	6.28859e-05	-14.5	-1.134458e-07
0	-6.27828e-05	2	6.27924e-05	-14.4	-7.26922e-08
0	-6.29082e-05	2	6.2838e-05	-14.3	-7.37045e-08
0	-6.30725e-05	2	6.2804e-05	-14.2	-1.17421e-07
0	-6.27176e-05	2	6.28352e-05	-14.1	-1.4435e-07
0	-6.26949e-05	2	6.28927e-05	-14	-1.48206e-07
0	-6.28897e-05	2	6.31013e-05	-13.9	-1.27015e-07
0	-6.28827e-05	2	6.29274e-05	-13.8	-1.08714e-07
0	-6.27844e-05	2	6.27131e-05	-13.7	-1.07125e-07
0	-6.27429e-05	2	6.29061e-05	-13.6	-7.80895e-08
0	-6.28471e-05	2	6.30154e-05	-13.5	-7.48283e-08
0	-6.29346e-05	2	6.2998e-05	-13.4	-7.57517e-08
0	-6.29186e-05	2	6.30486e-05	-13.3	-1.35318e-07
0	-6.31425e-05	2	6.32471e-05	-13.2	-1.42049e-07
0	-6.30927e-05	2	6.30862e-05	-13.1	-1.06724e-07
0	-6.31722e-05	2	6.32803e-05	-13	-1.50572e-07
0	-6.30393e-05	2	6.30296e-05	-12.9	-8.53087e-08
0	-6.29276e-05	2	6.30162e-05	-12.8	-1.02024e-07
0	-6.30664e-05	2	6.30727e-05	-12.7	-1.00645e-07
0	-6.28722e-05	2	6.30426e-05	-12.6	-1.29368e-07
0	-6.26908e-05	2	6.28549e-05	-12.5	-6.99769e-08
0	-6.30836e-05	2	6.31375e-05	-12.4	-1.2051e-07
0	-6.32303e-05	2	6.33228e-05	-12.3	-9.22366e-08
0	-6.31906e-05	2	6.32502e-05	-12.2	-1.28157e-07
0	-6.31401e-05	2	6.33063e-05	-12.1	-1.31714e-07
0	-6.30888e-05	2	6.31073e-05	-12	-7.88547e-08
0	-6.30629e-05	2	6.30737e-05	-11.9	-8.65418e-08
0	-6.30709e-05	2	6.31097e-05	-11.8	-7.10591e-08
0	-6.29536e-05	2	6.3126e-05	-11.7	-1.144302e-07
0	-6.31784e-05	2	6.32262e-05	-11.6	-6.9706e-08
0	-6.29157e-05	2	6.29772e-05	-11.5	-7.68506e-08
0	-6.3087e-05	2	6.3169e-05	-11.4	-6.5191e-08
0	-6.29919e-05	2	6.30731e-05	-11.3	-5.9387e-08
0	-6.30431e-05	2	6.30354e-05	-11.2	-7.56657e-08
0	-6.31309e-05	2	6.31815e-05	-11.1	-8.04675e-08
0	-6.29928e-05	2	6.30186e-05	-11	-1.05517e-07
0	-6.31453e-05	2	6.31942e-05	-10.9	-5.54103e-08
0	-6.30205e-05	2	6.31455e-05	-10.8	-4.52578e-08
0	-6.297e-05	2	6.30564e-05	-10.7	-5.04192e-08
0	-6.29022e-05	2	6.29328e-05	-10.6	-4.91808e-08
0	-6.30042e-05	2	6.30581e-05	-10.5	-4.98946e-08
0	-6.27935e-05	2	6.28639e-05	-10.4	-4.62627e-08
0	-6.27738e-05	2	6.30155e-05	-10.3	-4.35235e-08
0	-6.29257e-05	2	6.3021e-05	-10.2	-4.12119e-08
0	-6.29578e-05	2	6.29843e-05	-10.1	-3.96178e-08
0	-6.30918e-05	2	6.29789e-05	-10	-4.09936e-08
0	-6.29138e-05	2	6.29694e-05	-9.9	-4.10755e-08
0	-6.30868e-05	2	6.30407e-05	-9.8	-3.98207e-08
0	-6.30555e-05	2	6.31355e-05	-9.7	-3.40553e-08
0	-6.26731e-05	2	6.27956e-05	-9.6	-3.11112e-08
0	-6.2922e-05	2	6.30713e-05	-9.5	-3.15731e-08
0	-6.30382e-05	2	6.31278e-05	-9.4	-3.67163e-08
0	-6.30194e-05	2	6.29801e-05	-9.3	-3.36446e-08
0	-6.29621e-05	2	6.2958e-05	-9.2	-3.25448e-08
0	-6.28373e-05	2	6.28769e-05	-9.1	-2.41437e-08
0	-6.27234e-05	2	6.27435e-05	-9	-3.36277e-08
0	-6.2856e-05	2	6.28827e-05	-8.9	-3.55563e-08
0	-6.28981e-05	2	6.25957e-05	-8.8	-3.65807e-08
0	-6.29275e-05	2	6.29241e-05	-8.7	-3.86063e-08
0	-6.29422e-05	2	6.28474e-05	-8.6	-3.84125e-08
0	-6.28983e-05	2	6.28752e-05	-8.5	-3.29504e-08
0	-6.27995e-05	2	6.30025e-05	-8.4	-3.0353e-08
0	-6.31205e-05	2	6.30306e-05	-8.3	-3.20115e-08
0	-6.31433e-05	2	6.32298e-05	-8.2	-3.18192e-08
0	-6.27208e-05	2	6.30445e-05	-8.1	-3.05576e-08
0	-6.27716e-05	2	6.28349e-05	-8	-3.23511e-08
0	-6.29758e-05	2	6.29147e-05	-7.9	-2.90418e-08
0	-6.29767e-05	2	6.31287e-05	-7.8	-2.49175e-08
0	-6.3022e-05	2	6.31319e-05	-7.7	-1.90295e-08
0	-6.31344e-05	2	6.31889e-05	-7.6	-2.35262e-08
0	-6.31189e-05	2	6.30273e-05	-7.5	-2.10883e-08
0	-6.29079e-05	2	6.30726e-05	-7.4	-1.41122e-08
0	-6.28573e-05	2	6.29828e-05	-7.3	-1.69868e-08
0	-6.28955e-05	2	6.30632e-05	-7.2	-2.27452e-08
0	-6.33053e-05	2	6.31264e-05	-7.1	-2.53695e-08
0	-6.32082e-05	2	6.31363e-05	-7	-2.02231e-08
0	-6.32165e-05	2	6.33075e-05	-6.9	-2.07951e-08
0	-6.3344e-05	2	6.33616e-05	-6.8	-1.68967e-08
0	-6.3287e-05	2	6.34247e-05	-6.7	-1.73645e-08
0	-6.32297e-05	2	6.32509e-05	-6.6	-1.68908e-08
0	-6.32857e-05	2	6.32791e-05	-6.5	-1.51434e-08
0	-6.33934e-05	2	6.33896e-05	-6.4	-1.5339e-08
0	-6.33351e-05	2	6.35582e-05	-6.3	-1.7174e-08
0	-6.3359e-05	2	6.358e-05	-6.2	-1.3114e-08
0	-6.37235e-05	2	6.36814e-05	-6.1	-1.39121e-08
0	-6.36582e-05	2	6.35828e-05	-6	-1.55123e-08
0	-6.35714e-05	2	6.34769e-05	-5.9	-1.59559e-08
0	-6.35833e-05	2	6.35523e-05	-5.8	-1.40979e-08
0	-6.36761e-05	2	6.37526e-05	-5.7	-1.14573e-08
0	-6.36485e-05	2	6.36878e-05	-5.6	-1.3957e-08
0	-6.3597e-05	2	6.36268e-05	-5.5	-1.39356e-08
0	-6.36136e-05	2	6.36064e-05	-5.4	-1.43067e-08
0	-6.3923e-05	2	6.38373e-05	-5.3	-9.6464e-09
0	-6.39835e-05	2	6.40937e-05	-5.2	-1.0859e-08
0	-6.41229e-05	2	6.40377e-05	-5.1	-1.29356e-08
0	-6.39223e-05	2	6.39332e-05	-5	-1.009308e-08
0	-6.39504e-05	2	6.39876e-05	-4.9	-8.61553e-09
0	-6.40565e-05	2	6.41331e-05	-4.8	-7.64937e-09
0	-6.41331e-05	2	6.40484e-05	-4.7	-6.84142e-09
0	-6.40289e-05	2	6.40943e-05	-4.6	-6.42984e-09
0	-6.41645e-05	2	6.41125e-05	-4.5	-6.86204e-09
0	-6.41282e-05	2	6.40155e-05	-4.4	-5.90475e-09
0	-6.42011e-05	2	6.42007e-05	-4.3	-6.88936e-09
0	-6.41651e-05	2	6.40296e-05	-4.2	-5.8073e-09
0	-6.42545e-05	2	6.42686e-05	-4.1	-5.14283e-09
0	-6.42795e-05	2	6.42419e-05	-4	-4.1981e-09
0	-6.43556e-05	2	6.43912e-05	-3.9	-4.14007e-09
0	-6.43988e-05	2	6.42784e-05	-3.8	-3.137e-09
0	-6.43252e-05	2	6.42019e-05	-3.7	-3.29313e-09
0	-6.42225e-05	2	6.42897e-05	-3.6	-3.77e-09
0	-6.42508e-05	2	6.44031e-05	-3.5	-3.75329e-09
0	-6.43272e-05	2	6.43428e-05	-3.4	-2.86037e-09
0	-6.44585e-05	2	6.43419e-05	-3.3	-2.72616e-09
0	-6.4509e-05	2	6.44931e-05	-3.2	-4.27195e-09
0	-6.44968e-05	2	6.44006e-05	-3.1	-3.45651e-09
0	-6.43591e-05	2	6.44628e-05	-3	-2.82817e-09
0	-6.43246e-05	2	6.43322e-05	-2.9	-2.5682e-09
0	-6.42361e-05	2	6.42374e-05	-2.8	-2.56626e-09
0	-6.41284e-05	2	6.4087e-05	-2.7	-2.54617e-09
0	-6.39909e-05	2	6.38521e-05	-2.6	-2.85638e-09
0	-6.41467e-05	2	6.39423e-05	-2.5	-2.13725e-09
0	-6.40795e-05	2	6.41727e-05	-2.4	-1.92392e-09
0	-6.44969e-05	2	6.45222e-05	-2.3	-1.53179e-09
0	-6.44019e-05	2	6.44215e-05	-2.2	-1.48875e-09
0	-6.44144e-05	2	6.44882e-05	-2.1	-1.36733e-09
0	-6.45475e-05	2	6.45595e-05	-2	-1.08898e-09
0	-6.44379e-05	2	6.44988e-05	-1.9	-1.10637e-09
0	-6.44676e-05	2	6.44805e-05	-1.8	-1.07338e-09
0	-6.45921e-05	2	6.45138e-05	-1.7	-1.02074e-09
0	-6.46633e-05	2	6.45329e-05	-1.6	-9.4457e-10
0	-6.45292e-05	2	6.45016e-05	-1.5	-7.9086e-10
0	-6.46632e-05	2	6.4522e-05	-1.4	-7.7376e-10
0	-6.43806e-05	2	6.4363e-05	-1.3	-6.7384e-10
0	-6.48462e-05	2	6.48515e-05	-1.2	-7.099e-10
0	-6.49659e-05	2	6.49394e-05	-1.1	-5.7411e-10
0	-6.50007e-05	2	6.47651e-05	-1	-5.57e-10
0	-6.4844e-05	2	6.50382e-05	-0.9	-3.6618e-10
0	-6.51999e-05	2	6.50954e-05	-0.8	-4.2301e-10
0	-6.50964e-05	2	6.50065e-05	-0.7	-3.1858e-10
0	-6.47798e-05	2	6.45651e-05	-0.6	-2.3805e-10
0	-6.49068e-05	2	6.48662e-05	-0.5	-1.803e-10
0	-6.50458e-05	2	6.50933e-05	-0.4	-1.0572e-10
0	-6.49662e-05	2	6.50795e-05	-0.3	-1.0097e-10
0	-6.52242e-05	2	6.53139e-05	-0.2	-6.742e-11
0	-6.51804e-05	2	6.51425e-05	-0.1	-5.279e-11
0	-6.51603e-05	2	6.5014e-05	0	-4.983e-11
0	-6.51911e-05	2	6.51034e-05	0.1	-2.64e-11
0	-6.50028e-05	2	6.50965e-05	0.2	-1.92e-11
0	-6.52161e-05	2	6.5102e-05	0.3	-2.756e-11
0	-6.52475e-05	2	6.5283e-05	0.4	-1.338e-11
0	-6.54375e-05	2	6.555e-05	0.5	-1.016e-11
0	-6.53011e-05	2	6.54804e-05	0.6	-6.06e-12
0	-6.5442e-05	2	6.52962e-05	0.7	-2e-14
0	-6.52637e-05	2	6.51103e-05	0.8	3.21e-12
0	-6.50994e-05	2	6.5163e-05	0.9	7.46e-12
0	-6.5399e-05	2	6.55239e-05	1	1.444e-11
0	-6.5339e-05	2	6.55847e-05	1.1	1.431e-11
0	-6.54426e-05	2	6.54827e-05	1.2	2.47e-11
0	-6.55993e-05	2	6.56524e-05	1.3	4.259e-11
0	-6.55851e-05	2	6.55325e-05	1.4	3.411e-11
0	-6.5646e-05	2	6.5555e-05	1.5	3.238e-11
0	-6.5605e-05	2	6.55685e-05	1.6	2.628e-11
0	-6.56481e-05	2	6.56697e-05	1.7	2.449e-11
0	-6.56413e-05	2	6.57609e-05	1.8	1.846e-11
0	-6.58072e-05	2	6.59145e-05	1.9	1.215e-11
0	-6.60603e-05	2	6.59503e-05	2	1.032e-11
