Vs	Is	Vd	Id	Vg	Ig	
V	A	V	A	V	A	
0	-0.000127918	2	0.000127766	2	-4e-14
0	-0.000127899	2	0.000127893	1.9	-7e-14
0	-0.000127735	2	0.000127821	1.8	-5e-14
0	-0.000127849	2	0.000127949	1.7	-7e-14
0	-0.000128114	2	0.00012814	1.6	-6e-14
0	-0.000128099	2	0.000127995	1.5	5e-14
0	-0.000128332	2	0.000128003	1.4	-9e-14
0	-0.000128092	2	0.000128313	1.3	-9e-14
0	-0.000128119	2	0.000128106	1.2	-2e-14
0	-0.000128051	2	0.000127951	1.1	-5e-14
0	-0.000127951	2	0.000127911	1	1e-14
0	-0.000127912	2	0.000127925	0.9	-4e-14
0	-0.000127847	2	0.000128097	0.8	-6e-14
0	-0.000128148	2	0.000128038	0.7	-2e-14
0	-0.00012781	2	0.000128029	0.6	-1e-14
0	-0.000128096	2	0.000127905	0.5	-8e-14
0	-0.000128024	2	0.000128289	0.4	-4e-14
0	-0.000128412	2	0.000128476	0.3	-5e-14
0	-0.000128492	2	0.000128714	0.2	-9e-14
0	-0.000128527	2	0.000128565	0.1	-4e-14
0	-0.000128784	2	0.00012856	0	2e-14
0	-0.000128281	2	0.0001283	-0.1	-1e-14
0	-0.0001284	2	0.000128361	-0.2	-4e-14
0	-0.000128435	2	0.00012846	-0.3	1e-14
0	-0.000128464	2	0.000128505	-0.4	-7e-14
0	-0.000128188	2	0.000128242	-0.5	-8e-14
0	-0.000128268	2	0.000128292	-0.6	-2e-14
0	-0.000128268	2	0.000128061	-0.7	-1.1e-13
0	-0.000128729	2	0.000128599	-0.8	-7e-14
0	-0.000128413	2	0.000128672	-0.9	4e-14
0	-0.000128687	2	0.000128686	-1	0
0	-0.000129106	2	0.000128767	-1.1	-1.1e-13
0	-0.000128945	2	0.000128993	-1.2	-8e-14
0	-0.000128655	2	0.000128719	-1.3	-9e-14
0	-0.000128391	2	0.000128412	-1.4	-1.2e-13
0	-0.000128748	2	0.000128746	-1.5	-1.2e-13
0	-0.000128263	2	0.000128175	-1.6	-8e-14
0	-0.000128045	2	0.000128037	-1.7	-1.1e-13
0	-0.000128082	2	0.000128107	-1.8	-6e-14
0	-0.000128272	2	0.000128289	-1.9	-4e-14
0	-0.000128421	2	0.000128336	-2	-1e-14
0	-0.000128434	2	0.000128224	-2.1	-4e-14
0	-0.000128175	2	0.000128174	-2.2	-7e-14
0	-0.000128018	2	0.00012825	-2.3	-9e-14
0	-0.000128073	2	0.000128286	-2.4	-8e-14
0	-0.000127995	2	0.000128096	-2.5	-7e-14
0	-0.000128152	2	0.000128064	-2.6	-5e-14
0	-0.000128066	2	0.000128139	-2.7	-1.2e-13
0	-0.000128196	2	0.000128281	-2.8	-1e-13
0	-0.000128145	2	0.000127958	-2.9	-1.1e-13
0	-0.000128284	2	0.000128309	-3	-7e-14
0	-0.000128319	2	0.00012797	-3.1	-7e-14
0	-0.000128164	2	0.000127971	-3.2	-6e-14
0	-0.000128068	2	0.000128068	-3.3	-1.2e-13
0	-0.000127873	2	0.000127851	-3.4	-6e-14
0	-0.000127879	2	0.00012802	-3.5	-6e-14
0	-0.000128075	2	0.000128048	-3.6	-1.1e-13
0	-0.000127959	2	0.000127838	-3.7	-8e-14
0	-0.00012808	2	0.000128042	-3.8	-7e-14
0	-0.000128087	2	0.000127902	-3.9	-1.1e-13
0	-0.000128202	2	0.000128254	-4	-1.4e-13
0	-0.000128095	2	0.000128008	-4.1	-1.6e-13
0	-0.000128263	2	0.000128109	-4.2	-1.2e-13
0	-0.000128194	2	0.000128192	-4.3	-8e-14
0	-0.000128212	2	0.00012818	-4.4	-1e-13
0	-0.000128139	2	0.000128077	-4.5	-1.2e-13
0	-0.000128176	2	0.000128316	-4.6	-1.3e-13
0	-0.000128354	2	0.000128053	-4.7	-8e-14
0	-0.000127814	2	0.000127816	-4.8	-7e-14
0	-0.00012798	2	0.000127875	-4.9	-1.2e-13
0	-0.000127927	2	0.000127929	-5	-1.4e-13
0	-0.000127935	2	0.000128028	-5.1	-1.1e-13
0	-0.000127934	2	0.000127998	-5.2	-1.1e-13
0	-0.000127971	2	0.000127959	-5.3	-8e-14
0	-0.000128152	2	0.000128214	-5.4	-9e-14
0	-0.000128114	2	0.000128115	-5.5	-1.4e-13
0	-0.000128391	2	0.000128256	-5.6	-1.6e-13
0	-0.000128076	2	0.000127997	-5.7	-1.2e-13
0	-0.000128137	2	0.000128044	-5.8	-1.6e-13
0	-0.000128053	2	0.000128134	-5.9	-1.3e-13
0	-0.000128106	2	0.000128158	-6	-1.3e-13
0	-0.000128126	2	0.000128287	-6.1	-1.4e-13
0	-0.000128105	2	0.000128181	-6.2	-2.2e-13
0	-0.000127996	2	0.000128099	-6.3	-1.3e-13
0	-0.00012815	2	0.000128135	-6.4	-1.3e-13
0	-0.000128059	2	0.000128102	-6.5	-1.6e-13
0	-0.000128035	2	0.000128086	-6.6	-1.6e-13
0	-0.000127937	2	0.000128004	-6.7	-1.4e-13
0	-0.000128033	2	0.000128033	-6.8	-1.6e-13
0	-0.000128017	2	0.000128164	-6.9	-1.7e-13
0	-0.000128124	2	0.000128192	-7	-1.6e-13
0	-0.000127962	2	0.000127951	-7.1	-1.6e-13
0	-0.00012818	2	0.000128195	-7.2	-2e-13
0	-0.000127835	2	0.000127942	-7.3	-1.6e-13
0	-0.000128042	2	0.000128059	-7.4	-2e-13
0	-0.000128158	2	0.000128104	-7.5	-2.3e-13
0	-0.000128112	2	0.000128154	-7.6	-1.7e-13
0	-0.000128123	2	0.000128031	-7.7	-2.1e-13
0	-0.000128121	2	0.000127975	-7.8	-2.2e-13
0	-0.000128015	2	0.000127768	-7.9	-2.2e-13
0	-0.000127879	2	0.00012795	-8	-1.9e-13
0	-0.000127978	2	0.000128133	-8.1	-1.8e-13
0	-0.000128051	2	0.000128049	-8.2	-1.4e-13
0	-0.000127882	2	0.00012804	-8.3	-2e-13
0	-0.000128045	2	0.000128069	-8.4	-2e-13
0	-0.000128025	2	0.000128078	-8.5	-2e-13
0	-0.0001279	2	0.000127909	-8.6	-2.2e-13
0	-0.000127967	2	0.00012789	-8.7	-1.4e-13
0	-0.000128183	2	0.00012799	-8.8	-2e-13
0	-0.000128052	2	0.000128053	-8.9	-2.5e-13
0	-0.000128134	2	0.00012805	-9	-1.9e-13
0	-0.000128167	2	0.000128023	-9.1	-2.5e-13
0	-0.000128067	2	0.000128184	-9.2	-2.4e-13
0	-0.000127727	2	0.000127836	-9.3	-2.5e-13
0	-0.000127841	2	0.000127943	-9.4	-2.1e-13
0	-0.000127903	2	0.000127765	-9.5	-2.5e-13
0	-0.000127928	2	0.000127986	-9.6	-2.6e-13
0	-0.000128068	2	0.000127923	-9.7	-2.3e-13
0	-0.000128066	2	0.000128057	-9.8	-2.7e-13
0	-0.000127939	2	0.000128076	-9.9	-2.5e-13
0	-0.000127982	2	0.000127923	-10	-2.6e-13
0	-0.00012783	2	0.000127895	-10.1	-2.2e-13
0	-0.000127939	2	0.000127927	-10.2	-2.3e-13
0	-0.000127899	2	0.000128037	-10.3	-2.6e-13
0	-0.000128024	2	0.000127992	-10.4	-3e-13
0	-0.000128238	2	0.000128396	-10.5	-2.7e-13
0	-0.000127951	2	0.000127847	-10.6	-2.5e-13
0	-0.0001279	2	0.000127858	-10.7	-2.7e-13
0	-0.000127675	2	0.000127748	-10.8	-2.9e-13
0	-0.000127518	2	0.000127662	-10.9	-2.9e-13
0	-0.000127835	2	0.000127868	-11	-2.4e-13
0	-0.000128087	2	0.000127891	-11.1	-2.8e-13
0	-0.00012777	2	0.000127969	-11.2	-2.7e-13
0	-0.000128232	2	0.000128128	-11.3	-2.9e-13
0	-0.000128019	2	0.000128048	-11.4	-3.3e-13
0	-0.000128261	2	0.000127923	-11.5	-2.9e-13
0	-0.000128066	2	0.000127926	-11.6	-3.2e-13
0	-0.000127973	2	0.000127895	-11.7	-2.9e-13
0	-0.000127785	2	0.000127991	-11.8	-3.2e-13
0	-0.000127854	2	0.0001278	-11.9	-3e-13
0	-0.000128008	2	0.00012795	-12	-4e-13
0	-0.000127929	2	0.000128045	-12.1	-3.8e-13
0	-0.000128337	2	0.000128104	-12.2	-3.7e-13
0	-0.000127971	2	0.000128025	-12.3	-3.3e-13
0	-0.000127829	2	0.000127732	-12.4	-3.2e-13
0	-0.000127602	2	0.00012775	-12.5	-3.2e-13
0	-0.000127943	2	0.00012785	-12.6	-3.4e-13
0	-0.00012788	2	0.000127976	-12.7	-3.6e-13
0	-0.000128048	2	0.000128047	-12.8	-3.6e-13
0	-0.000128007	2	0.000127963	-12.9	-4.4e-13
0	-0.000128148	2	0.000128075	-13	-3.3e-13
0	-0.000128048	2	0.000128102	-13.1	-3.9e-13
0	-0.000128028	2	0.000128005	-13.2	-4e-13
0	-0.000127894	2	0.000127857	-13.3	-3.9e-13
0	-0.000127984	2	0.000127991	-13.4	-4e-13
0	-0.000128004	2	0.00012791	-13.5	-4.3e-13
0	-0.000128042	2	0.000128113	-13.6	-3.6e-13
0	-0.000128263	2	0.000128237	-13.7	-4.3e-13
0	-0.000128229	2	0.000128197	-13.8	-4.1e-13
0	-0.000128344	2	0.000128356	-13.9	-4.6e-13
0	-0.000127957	2	0.000127842	-14	-3.6e-13
0	-0.000127949	2	0.000127933	-14.1	-4.5e-13
0	-0.000127909	2	0.000127959	-14.2	-4.7e-13
0	-0.000127862	2	0.000127779	-14.3	-4.6e-13
0	-0.000127733	2	0.000127873	-14.4	-4.4e-13
0	-0.000127857	2	0.000127774	-14.5	-4.6e-13
0	-0.000127867	2	0.000127924	-14.6	-4.2e-13
0	-0.000127911	2	0.000128207	-14.7	-4.6e-13
0	-0.000127797	2	0.000127791	-14.8	-4.5e-13
0	-0.000128034	2	0.0001277	-14.9	-5e-13
0	-0.000127747	2	0.00012775	-15	-5e-13
0	-0.000127848	2	0.000128028	-15	-4.9e-13
0	-0.000128001	2	0.000127945	-14.9	-4.9e-13
0	-0.000127613	2	0.000127909	-14.8	-4.5e-13
0	-0.000127719	2	0.000127877	-14.7	-3.8e-13
0	-0.000128003	2	0.000127915	-14.6	-4e-13
0	-0.000127844	2	0.000127901	-14.5	-3.4e-13
0	-0.00012795	2	0.000127914	-14.4	-4.1e-13
0	-0.000128097	2	0.000128067	-14.3	-3.8e-13
0	-0.000128098	2	0.000127963	-14.2	-2.9e-13
0	-0.000128091	2	0.000128285	-14.1	-3.6e-13
0	-0.000128161	2	0.000128192	-14	-2.9e-13
0	-0.000128293	2	0.000128121	-13.9	-3.4e-13
0	-0.000128054	2	0.000128293	-13.8	-2.6e-13
0	-0.000128215	2	0.000128218	-13.7	-2.5e-13
0	-0.000128277	2	0.000128292	-13.6	-2.3e-13
0	-0.000128342	2	0.000128311	-13.5	-2.4e-13
0	-0.000128272	2	0.000128345	-13.4	-2.7e-13
0	-0.000128353	2	0.000128299	-13.3	-2.7e-13
0	-0.000128371	2	0.00012851	-13.2	-3.1e-13
0	-0.000128187	2	0.000128187	-13.1	-2.3e-13
0	-0.000128253	2	0.000128168	-13	-2.1e-13
0	-0.000127976	2	0.000127891	-12.9	-1.9e-13
0	-0.000127971	2	0.000127885	-12.8	-2e-13
0	-0.000127983	2	0.000128007	-12.7	-2e-13
0	-0.000127941	2	0.000128058	-12.6	-2.1e-13
0	-0.000128111	2	0.000128121	-12.5	-2.3e-13
0	-0.000128049	2	0.000128192	-12.4	-1.8e-13
0	-0.000128243	2	0.000128125	-12.3	-1.9e-13
0	-0.000128155	2	0.000128098	-12.2	-1.6e-13
0	-0.000128128	2	0.000128113	-12.1	-1.6e-13
0	-0.000127929	2	0.000128036	-12	-1.6e-13
0	-0.000128106	2	0.000128051	-11.9	-2.3e-13
0	-0.000127889	2	0.000128452	-11.8	-2.2e-13
0	-0.000128547	2	0.000128269	-11.7	-2.2e-13
0	-0.000128254	2	0.00012832	-11.6	-1.6e-13
0	-0.000128489	2	0.000128369	-11.5	-1.5e-13
0	-0.000128481	2	0.000128412	-11.4	-1.9e-13
0	-0.000128301	2	0.000128649	-11.3	-2.2e-13
0	-0.000128682	2	0.000128845	-11.2	-1.7e-13
0	-0.000128999	2	0.000128905	-11.1	-1.6e-13
0	-0.000128553	2	0.000128835	-11	-1e-13
0	-0.00012851	2	0.000128549	-10.9	-1.3e-13
0	-0.000128549	2	0.00012859	-10.8	-1.5e-13
0	-0.000128574	2	0.00012854	-10.7	-1.3e-13
0	-0.000128384	2	0.000128514	-10.6	-1.4e-13
0	-0.000128578	2	0.000128599	-10.5	-1.3e-13
0	-0.000128458	2	0.000128414	-10.4	-1.5e-13
0	-0.000128766	2	0.000128741	-10.3	-1.4e-13
0	-0.000128765	2	0.00012874	-10.2	-1.5e-13
0	-0.000128731	2	0.000128796	-10.1	-1.2e-13
0	-0.00012863	2	0.000128483	-10	-1.4e-13
0	-0.000128483	2	0.000128587	-9.9	-1.3e-13
0	-0.000128423	2	0.000128479	-9.8	-5e-14
0	-0.000128497	2	0.000128517	-9.7	-2e-13
0	-0.000128433	2	0.000128592	-9.6	-1.2e-13
0	-0.000128358	2	0.000128525	-9.5	-1.5e-13
0	-0.000128401	2	0.000128345	-9.4	-1e-13
0	-0.000128476	2	0.000128363	-9.3	-1.3e-13
0	-0.000128406	2	0.00012829	-9.2	-1.1e-13
0	-0.000128373	2	0.000128478	-9.1	-7e-14
0	-0.000128379	2	0.000128529	-9	-6e-14
0	-0.000128454	2	0.000128484	-8.9	-1.6e-13
0	-0.000128552	2	0.00012851	-8.8	-1.1e-13
0	-0.000128573	2	0.00012864	-8.7	-1.5e-13
0	-0.000128643	2	0.000128769	-8.6	-1.3e-13
0	-0.00012838	2	0.000128436	-8.5	-1.2e-13
0	-0.000128408	2	0.000128387	-8.4	-1.5e-13
0	-0.000128378	2	0.000128308	-8.3	-7e-14
0	-0.000128362	2	0.000128345	-8.2	-1.3e-13
0	-0.00012823	2	0.000128269	-8.1	-1.4e-13
0	-0.000128356	2	0.000128414	-8	-1.2e-13
0	-0.000128459	2	0.000128442	-7.9	-1.5e-13
0	-0.00012833	2	0.000128478	-7.8	-8e-14
0	-0.000127949	2	0.000128142	-7.7	-1e-13
0	-0.000128151	2	0.000128147	-7.6	-1.3e-13
0	-0.000128302	2	0.000128051	-7.5	-1.2e-13
0	-0.000128466	2	0.000128441	-7.4	-1.1e-13
0	-0.000128205	2	0.000128482	-7.3	-1e-13
0	-0.000128344	2	0.000128727	-7.2	-1.4e-13
0	-0.000128653	2	0.000128228	-7.1	1e-14
0	-0.00012886	2	0.000128583	-7	-1.2e-13
0	-0.000128085	2	0.000128458	-6.9	-6e-14
0	-0.00012893	2	0.000128476	-6.8	-1.2e-13
0	-0.000128647	2	0.000128619	-6.7	-9e-14
0	-0.000128497	2	0.000128502	-6.6	-1.4e-13
0	-0.000128454	2	0.000128487	-6.5	-1.4e-13
0	-0.000128656	2	0.000128629	-6.4	-7e-14
0	-0.000128462	2	0.000128291	-6.3	-1.3e-13
0	-0.000128498	2	0.000128293	-6.2	-1.2e-13
0	-0.000128121	2	0.000128429	-6.1	-6e-14
0	-0.000128608	2	0.000128321	-6	-6e-14
0	-0.000128635	2	0.000128717	-5.9	-8e-14
0	-0.000128417	2	0.000128436	-5.8	-5e-14
0	-0.000128483	2	0.000128614	-5.7	-8e-14
0	-0.000128691	2	0.000128691	-5.6	-1.2e-13
0	-0.000128792	2	0.00012894	-5.5	-1e-13
0	-0.000128846	2	0.000129007	-5.4	-8e-14
0	-0.000128938	2	0.000128838	-5.3	-9e-14
0	-0.00012875	2	0.000128838	-5.2	-6e-14
0	-0.000128771	2	0.000129377	-5.1	-8e-14
0	-0.000129379	2	0.000129399	-5	-8e-14
0	-0.000129329	2	0.000129467	-4.9	-5e-14
0	-0.000129574	2	0.000129481	-4.8	-1e-13
0	-0.000129296	2	0.000129287	-4.7	-1e-14
0	-0.000129369	2	0.000129417	-4.6	-8e-14
0	-0.000129431	2	0.00012947	-4.5	-5e-14
0	-0.000129464	2	0.000129546	-4.4	-6e-14
0	-0.000129417	2	0.000129469	-4.3	-3e-14
0	-0.000129537	2	0.000129357	-4.2	-8e-14
0	-0.000129316	2	0.000129229	-4.1	-5e-14
0	-0.000129325	2	0.000129319	-4	-3e-14
0	-0.000129356	2	0.000129429	-3.9	-6e-14
0	-0.000129347	2	0.000129345	-3.8	-6e-14
0	-0.000129351	2	0.000129613	-3.7	-4e-14
0	-0.000129306	2	0.000129347	-3.6	-1e-13
0	-0.000129321	2	0.000129346	-3.5	-1e-13
0	-0.000129432	2	0.000129503	-3.4	-8e-14
0	-0.000129518	2	0.000129591	-3.3	-6e-14
0	-0.000129427	2	0.000129472	-3.2	-5e-14
0	-0.000129315	2	0.000129284	-3.1	-2e-14
0	-0.000129542	2	0.000129341	-3	-4e-14
0	-0.000129313	2	0.000129244	-2.9	-1e-14
0	-0.000129279	2	0.000129249	-2.8	-4e-14
0	-0.000129112	2	0.000129239	-2.7	-5e-14
0	-0.000129311	2	0.000129297	-2.6	-2e-14
0	-0.000129189	2	0.000129232	-2.5	-4e-14
0	-0.000129315	2	0.000129234	-2.4	-6e-14
0	-0.000129207	2	0.000129216	-2.3	-1e-14
0	-0.000129368	2	0.000129287	-2.2	-5e-14
0	-0.000129492	2	0.000129572	-2.1	-3e-14
0	-0.000129602	2	0.000129575	-2	2e-14
0	-0.000129409	2	0.000129286	-1.9	5e-14
0	-0.000129558	2	0.000129439	-1.8	-3e-14
0	-0.000129207	2	0.000129255	-1.7	-6e-14
0	-0.000129267	2	0.000129351	-1.6	-5e-14
0	-0.000129282	2	0.000129245	-1.5	-5e-14
0	-0.000129199	2	0.000129209	-1.4	-4e-14
0	-0.000129223	2	0.000129167	-1.3	-3e-14
0	-0.000129349	2	0.000129182	-1.2	-2e-14
0	-0.000129354	2	0.000129133	-1.1	-1e-13
0	-0.000129204	2	0.00012911	-1	0
0	-0.000129183	2	0.000129285	-0.9	-1e-14
0	-0.000129224	2	0.000129258	-0.8	0
0	-0.000129243	2	0.000129276	-0.7	1e-14
0	-0.000129279	2	0.000129278	-0.6	-3e-14
0	-0.000129223	2	0.000129265	-0.5	2e-14
0	-0.00012913	2	0.000129145	-0.4	-1e-14
0	-0.000129313	2	0.000129236	-0.3	-3e-14
0	-0.000129292	2	0.000129376	-0.2	-1e-14
0	-0.000129397	2	0.000129457	-0.1	-2e-14
0	-0.000129418	2	0.000129298	0	-1e-14
0	-0.000129379	2	0.000129298	0.1	-3e-14
0	-0.000129296	2	0.000129353	0.2	1e-14
0	-0.000129469	2	0.000129308	0.3	-1e-14
0	-0.000129195	2	0.000129238	0.4	-1e-14
0	-0.000129339	2	0.000129254	0.5	0
0	-0.000129286	2	0.000129224	0.6	2e-14
0	-0.000129229	2	0.000129335	0.7	4e-14
0	-0.000129233	2	0.000129248	0.8	-1e-14
0	-0.000129315	2	0.000129156	0.9	4e-14
0	-0.000129203	2	0.000129153	1	-2e-14
0	-0.00012924	2	0.000129234	1.1	1e-14
0	-0.000129366	2	0.000129111	1.2	0
0	-0.000129192	2	0.000129267	1.3	5e-14
0	-0.000129117	2	0.00012912	1.4	1e-14
0	-0.000129265	2	0.00012919	1.5	1e-14
0	-0.000129257	2	0.000129223	1.6	2e-14
0	-0.000129128	2	0.000129257	1.7	3e-14
0	-0.000129293	2	0.000129345	1.8	3e-14
0	-0.000129347	2	0.000129344	1.9	4e-14
0	-0.000129425	2	0.00012919	2	3e-14
