Vs	Is	Vd	Id	Vg	Ig	
V	A	V	A	V	A	
0	-6.35564e-05	2	6.45465e-05	2	3.68596e-09
0	-6.39002e-05	2	6.39309e-05	1.95	3.16595e-09
0	-6.64087e-05	2	6.72086e-05	1.9	3.3555e-09
0	-6.834e-05	2	7.01771e-05	1.85	2.98768e-09
0	-7.04771e-05	2	7.05828e-05	1.8	2.6e-09
0	-7.0702e-05	2	7.02008e-05	1.75	2.24164e-09
0	-7.0691e-05	2	6.92711e-05	1.7	1.93099e-09
0	-6.98419e-05	2	6.93558e-05	1.65	1.60924e-09
0	-6.8542e-05	2	6.88997e-05	1.6	1.24222e-09
0	-6.91412e-05	2	6.95378e-05	1.55	9.0158e-10
0	-6.89189e-05	2	6.87888e-05	1.5	6.8953e-10
0	-6.8608e-05	2	6.97423e-05	1.45	2.6992e-10
0	-6.93474e-05	2	6.92452e-05	1.4	1.3682e-10
0	-6.9916e-05	2	7.05371e-05	1.35	6.702e-11
0	-6.95563e-05	2	6.86762e-05	1.3	5.728e-11
0	-6.84244e-05	2	6.82595e-05	1.25	2.096e-11
0	-6.86207e-05	2	6.82239e-05	1.2	-9e-12
0	-6.72607e-05	2	6.67674e-05	1.15	-1.4168e-10
0	-6.77213e-05	2	6.82725e-05	1.1	-9.68e-12
0	-6.72185e-05	2	6.72182e-05	1.05	-4.53e-11
0	-6.83511e-05	2	6.82098e-05	1	-2.1096e-10
0	-6.81216e-05	2	6.89531e-05	0.95	-2.8056e-10
0	-6.78427e-05	2	6.79298e-05	0.9	-2.6124e-10
0	-6.70331e-05	2	6.75308e-05	0.85	-3.2593e-10
0	-6.72864e-05	2	6.71222e-05	0.8	-3.9879e-10
0	-6.76063e-05	2	6.78482e-05	0.75	-3.4098e-10
0	-6.78669e-05	2	6.82199e-05	0.7	-4.5622e-10
0	-6.76649e-05	2	6.71747e-05	0.65	-5.6369e-10
0	-6.80447e-05	2	6.80335e-05	0.6	-5.9874e-10
0	-6.82364e-05	2	6.86301e-05	0.55	-5.7251e-10
0	-6.77395e-05	2	6.72683e-05	0.5	-5.7959e-10
0	-6.67067e-05	2	6.69049e-05	0.45	-6.0725e-10
0	-6.78671e-05	2	6.80366e-05	0.4	-6.1431e-10
0	-6.77002e-05	2	6.76201e-05	0.35	-8.8733e-10
0	-6.71993e-05	2	6.72024e-05	0.3	-2.09625e-09
0	-6.74809e-05	2	6.76353e-05	0.25	-1.02251e-08
0	-6.8407e-05	2	6.8013e-05	0.2	-1.1261e-07
0	-6.78161e-05	2	6.84468e-05	0.15	-1.55335e-07
0	-6.85669e-05	2	6.7825e-05	0.1	-1.86415e-07
0	-6.98401e-05	2	6.5895e-05	0.05	-2.41308e-07
0	-6.7097e-05	2	6.56257e-05	0	-4.80741e-07
0	-6.64917e-05	2	6.66745e-05	-0.05	-6.7001e-07
0	-6.75323e-05	2	6.82701e-05	-0.1	-7.48866e-07
0	-6.8272e-05	2	6.89228e-05	-0.15	-8.98494e-07
0	-6.90296e-05	2	6.97548e-05	-0.2	-7.75901e-07
0	-6.89926e-05	2	6.95652e-05	-0.25	-9.35513e-07
0	-6.80379e-05	2	6.89852e-05	-0.3	-1.32683e-06
0	-6.75711e-05	2	6.9001e-05	-0.35	-1.50477e-06
0	-6.79777e-05	2	7.00256e-05	-0.4	-1.62941e-06
0	-6.70941e-05	2	6.83356e-05	-0.45	-1.77185e-06
0	-6.69864e-05	2	6.99103e-05	-0.5	-2.27688e-06
0	-6.67042e-05	2	6.93856e-05	-0.55	-2.47358e-06
0	-6.62801e-05	2	6.88879e-05	-0.6	-2.68589e-06
0	-6.64061e-05	2	6.91385e-05	-0.65	-3.00976e-06
0	-6.61025e-05	2	6.93159e-05	-0.7	-3.47491e-06
0	-6.59523e-05	2	7.0176e-05	-0.75	-3.80859e-06
0	-6.5531e-05	2	6.91547e-05	-0.8	-3.73549e-06
0	-6.61308e-05	2	7.03741e-05	-0.85	-3.82697e-06
0	-6.59951e-05	2	6.8204e-05	-0.9	-4.56997e-06
0	-6.48595e-05	2	6.98536e-05	-0.95	-4.70771e-06
0	-6.50498e-05	2	6.99754e-05	-1	-5.20271e-06
0	-6.43354e-05	2	6.98735e-05	-1.05	-5.7833e-06
0	-6.44646e-05	2	7.00011e-05	-1.1	-5.978e-06
0	-6.41577e-05	2	7.08808e-05	-1.15	-6.57253e-06
0	-6.40195e-05	2	7.10961e-05	-1.2	-6.88219e-06
0	-6.31e-05	2	7.07985e-05	-1.25	-6.9308e-06
0	-6.34945e-05	2	7.22164e-05	-1.3	-1.53423e-05
0	-5.75504e-05	2	7.42125e-05	-1.35	-1.4524e-05
0	-5.98936e-05	2	7.24779e-05	-1.4	-1.34236e-05
0	-5.93633e-05	2	7.38386e-05	-1.45	-1.42169e-05
0	-5.89333e-05	2	7.49017e-05	-1.5	-1.8588e-05
0	-5.60537e-05	2	7.51155e-05	-1.55	-1.70154e-05
0	-5.66418e-05	2	7.46591e-05	-1.6	-1.88415e-05
0	-5.41706e-05	2	7.5263e-05	-1.65	-2.06127e-05
0	-5.42173e-05	2	7.60081e-05	-1.7	-2.22321e-05
0	-5.33933e-05	2	7.58994e-05	-1.75	-2.31193e-05
0	-5.21024e-05	2	7.60242e-05	-1.8	-2.4114e-05
0	-5.13173e-05	2	7.66728e-05	-1.85	-2.52816e-05
0	-5.16634e-05	2	7.70627e-05	-1.9	-2.57168e-05
0	-5.10264e-05	2	7.73645e-05	-1.95	-2.64921e-05
0	-4.98992e-05	2	7.73676e-05	-2	-2.65704e-05
0	-5.00856e-05	2	7.70446e-05	-2.05	-2.82136e-05
0	-4.65709e-05	2	7.37499e-05	-2.1	-2.90334e-05
0	-4.6108e-05	2	7.61756e-05	-2.15	-2.95928e-05
0	-4.6652e-05	2	7.70155e-05	-2.2	-2.90774e-05
0	-4.65922e-05	2	7.43966e-05	-2.25	-3.08399e-05
0	-4.36e-05	2	7.57665e-05	-2.3	-3.24159e-05
0	-4.37216e-05	2	7.652e-05	-2.35	-3.34518e-05
0	-4.23701e-05	2	7.58716e-05	-2.4	-3.57219e-05
0	-4.0033e-05	2	7.6671e-05	-2.45	-3.69431e-05
0	-3.98029e-05	2	7.7271e-05	-2.5	-3.71159e-05
0	-3.99681e-05	2	7.78757e-05	-2.55	-3.75704e-05
0	-3.86859e-05	2	7.86799e-05	-2.6	-3.97431e-05
0	-3.79638e-05	2	7.89563e-05	-2.65	-4.15277e-05
0	-3.78597e-05	2	7.91326e-05	-2.7	-4.0911e-05
0	-3.81683e-05	2	8.10705e-05	-2.75	-4.16053e-05
0	-3.97482e-05	2	8.11064e-05	-2.8	-4.07057e-05
0	-4.01193e-05	2	8.19939e-05	-2.85	-4.02456e-05
0	-4.04924e-05	2	8.12872e-05	-2.9	-4.10734e-05
0	-4.01798e-05	2	8.1318e-05	-2.95	-4.21445e-05
0	-3.78449e-05	2	8.2878e-05	-3	-4.55776e-05
0	-3.69026e-05	2	8.29799e-05	-3.05	-4.6469e-05
0	-3.62043e-05	2	8.29226e-05	-3.1	-4.64664e-05
0	-3.56133e-05	2	8.35684e-05	-3.15	-4.76898e-05
0	-3.51764e-05	2	8.40875e-05	-3.2	-4.8695e-05
0	-3.52784e-05	2	8.47308e-05	-3.25	-5.0093e-05
0	-3.4391e-05	2	8.52101e-05	-3.3	-5.09447e-05
0	-3.42767e-05	2	8.62614e-05	-3.35	-5.18106e-05
0	-3.40436e-05	2	8.68787e-05	-3.4	-5.2604e-05
0	-3.37301e-05	2	8.77604e-05	-3.45	-5.39706e-05
0	-3.30209e-05	2	8.81215e-05	-3.5	-5.3873e-05
0	-3.30719e-05	2	8.76573e-05	-3.55	-5.44604e-05
0	-3.29029e-05	2	8.88748e-05	-3.6	-5.65956e-05
0	-3.13749e-05	2	9.01594e-05	-3.65	-5.88441e-05
0	-3.06374e-05	2	9.0437e-05	-3.7	-5.99544e-05
0	-2.96339e-05	2	9.16457e-05	-3.75	-6.3746e-05
0	-2.76297e-05	2	9.37178e-05	-3.8	-6.68635e-05
0	-2.63688e-05	2	9.38582e-05	-3.85	-6.83044e-05
0	-2.56219e-05	2	9.49016e-05	-3.9	-6.94972e-05
0	-2.48132e-05	2	9.50665e-05	-3.95	-6.89842e-05
0	-2.4303e-05	2	9.57934e-05	-4	-7.17447e-05
0	-2.43756e-05	2	9.62147e-05	-4.05	-7.15633e-05
0	-2.39093e-05	2	9.66706e-05	-4.1	-7.39308e-05
0	-2.23294e-05	2	9.72879e-05	-4.15	-7.41734e-05
0	-2.18367e-05	2	9.74798e-05	-4.2	-7.43935e-05
0	-2.13583e-05	2	9.83806e-05	-4.25	-7.52271e-05
0	-2.32204e-05	2	9.86811e-05	-4.3	-7.72756e-05
0	-2.03829e-05	2	9.90133e-05	-4.35	-7.83243e-05
0	-2.02879e-05	2	9.98002e-05	-4.4	-7.88243e-05
0	-1.90148e-05	2	9.97061e-05	-4.45	-8.11945e-05
0	-1.85332e-05	2	0.0001006798	-4.5	-8.03259e-05
0	-1.81116e-05	2	0.0001008583	-4.55	-8.30679e-05
0	-1.75383e-05	2	0.0001010585	-4.6	-8.14941e-05
0	-1.68687e-05	2	9.98407e-05	-4.65	-8.55654e-05
0	-1.49243e-05	2	0.0001013579	-4.7	-8.68771e-05
0	-1.37808e-05	2	9.96113e-05	-4.75	-8.77396e-05
0	-1.46656e-05	2	0.0001005898	-4.8	-8.89519e-05
0	-1.43807e-05	2	0.0001027821	-4.85	-8.78843e-05
0	-1.2452e-05	2	0.000103581	-4.9	-9.08354e-05
0	-1.26996e-05	2	0.000104275	-4.95	-9.19204e-05
0	-1.16918e-05	2	0.0001046247	-5	-9.2561e-05
0	-1.1239e-05	2	0.0001044995	-5.05	-9.3435e-05
0	-1.09659e-05	2	9.81082e-05	-5.1	-9.7709e-05
0	-4.46253e-08	2	9.81581e-05	-5.15	-9.80633e-05
0	-3.40413e-08	2	9.78573e-05	-5.2	-9.7954e-05
0	-2.11741e-08	2	9.92719e-05	-5.25	-9.93746e-05
0	-2.89423e-08	2	9.75938e-05	-5.3	-9.4669e-05
0	-2.70724e-08	2	0.0001011412	-5.35	-0.0001016555
0	-4.35811e-08	2	0.0001026851	-5.4	-9.99749e-05
0	-3.43418e-08	2	0.0001027623	-5.45	-0.0001038325
0	-3.4489e-08	2	0.0001036006	-5.5	-0.0001056666
0	-4.78911e-08	2	0.0001069211	-5.55	-0.0001066187
0	-4.11003e-08	2	0.0001080867	-5.6	-0.0001043289
0	-4.23487e-08	2	0.0001089288	-5.65	-0.0001062479
0	-1.46566e-08	2	0.0001049743	-5.7	-0.0001040835
0	-5.07275e-08	2	0.0001055001	-5.75	-0.0001057235
0	-4.05705e-08	2	0.0001062876	-5.8	-0.0001067694
0	-4.2398e-08	2	0.000107561	-5.85	-0.000109414
0	-3.84463e-08	2	0.00010942	-5.9	-0.000109835
0	-1.68044e-08	2	0.000111531	-5.95	-0.000116057
0	-6.8145e-09	2	0.000117626	-6	-0.000116179
0	-2.89835e-09	2	0.000118469	-6	-0.000118515
0	-7.75481e-09	2	0.00011911	-5.95	-0.000118574
0	-1.10215e-09	2	0.000117932	-5.9	-0.000115824
0	-3.50926e-09	2	0.000116113	-5.85	-0.000122335
0	-1.56063e-08	2	0.000118785	-5.8	-0.000117143
0	-9.5448e-09	2	0.000115676	-5.75	-0.000109489
0	-2.01889e-09	2	0.0001116	-5.7	-0.000115813
0	-2.36604e-09	2	0.000117882	-5.65	-0.000118672
0	-5.40104e-09	2	0.000116428	-5.6	-0.000119373
0	-2.75155e-08	2	0.000114199	-5.55	-0.000118036
0	-5.62479e-09	2	0.000117658	-5.5	-0.000117258
0	-9.18252e-09	2	0.000117	-5.45	-0.000115785
0	-1.16128e-08	2	0.000112141	-5.4	-0.000111033
0	-3.50581e-08	2	0.000110465	-5.35	-0.000111981
0	-1.07238e-08	2	0.000113691	-5.3	-0.000110854
0	-3.7551e-08	2	0.000112854	-5.25	-0.000112919
0	-1.45903e-08	2	0.000111661	-5.2	-0.000112009
0	-2.00262e-08	2	0.000111186	-5.15	-0.00011127
0	-3.87988e-08	2	0.000106647	-5.1	-0.000106915
0	-3.06527e-08	2	0.000109826	-5.05	-0.00010959
0	-7.30412e-08	2	0.000106154	-5	-0.00010913
0	-4.94994e-08	2	0.000104739	-4.95	-0.000106977
0	-5.1728e-08	2	0.000107142	-4.9	-0.000107384
0	-2.96899e-08	2	0.000106548	-4.85	-0.00010657
0	-4.56707e-08	2	0.000106187	-4.8	-0.0001061
0	-5.1734e-08	2	0.000104937	-4.75	-0.000104924
0	-8.69161e-08	2	0.000100816	-4.7	-9.97741e-05
0	-9.93002e-08	2	9.98549e-05	-4.65	-9.89965e-05
0	-1.35636e-07	2	9.89779e-05	-4.6	-9.80574e-05
0	-1.99006e-07	2	9.78857e-05	-4.55	-9.8293e-05
0	-1.70892e-07	2	9.82327e-05	-4.5	-9.75706e-05
0	-1.50848e-07	2	9.66994e-05	-4.45	-9.7526e-05
0	-1.6414e-07	2	9.63151e-05	-4.4	-9.63583e-05
0	-2.23327e-07	2	9.57989e-05	-4.35	-9.43689e-05
0	-2.38013e-07	2	9.42511e-05	-4.3	-9.38616e-05
0	-3.02757e-07	2	9.2897e-05	-4.25	-9.22438e-05
0	-2.77224e-07	2	9.20428e-05	-4.2	-9.16477e-05
0	-2.94701e-07	2	9.11615e-05	-4.15	-9.12545e-05
0	-2.46623e-07	2	9.07419e-05	-4.1	-8.99632e-05
0	-2.49552e-07	2	8.94614e-05	-4.05	-8.93587e-05
0	-3.48722e-07	2	8.92766e-05	-4	-8.87651e-05
0	-4.48084e-07	2	8.78619e-05	-3.95	-8.72355e-05
0	-2.42693e-07	2	8.61428e-05	-3.9	-8.57858e-05
0	-2.39923e-07	2	8.52679e-05	-3.85	-8.47136e-05
0	-2.54326e-07	2	8.41914e-05	-3.8	-8.38421e-05
0	-2.74906e-07	2	8.28249e-05	-3.75	-8.27672e-05
0	-3.58836e-07	2	8.26986e-05	-3.7	-8.20723e-05
0	-3.3775e-07	2	8.22757e-05	-3.65	-8.20514e-05
0	-3.32134e-07	2	8.11971e-05	-3.6	-8.07562e-05
0	-3.714e-07	2	8.03657e-05	-3.55	-8.0025e-05
0	-4.57865e-07	2	7.95469e-05	-3.5	-7.92626e-05
0	-3.50837e-07	2	7.8334e-05	-3.45	-7.82174e-05
0	-4.70726e-07	2	7.76162e-05	-3.4	-7.67204e-05
0	-5.31725e-07	2	7.72968e-05	-3.35	-7.6337e-05
0	-6.47109e-07	2	7.64656e-05	-3.3	-7.56268e-05
0	-1.25617e-06	2	7.57555e-05	-3.25	-7.49268e-05
0	-5.13087e-07	2	7.47769e-05	-3.2	-7.40753e-05
0	-3.74074e-07	2	7.3908e-05	-3.15	-7.29392e-05
0	-3.28462e-07	2	7.31489e-05	-3.1	-7.26859e-05
0	-4.87046e-07	2	7.25379e-05	-3.05	-7.19821e-05
0	-4.70641e-07	2	7.15833e-05	-3	-7.09282e-05
0	-4.73444e-07	2	7.06502e-05	-2.95	-7.01087e-05
0	-4.93481e-07	2	6.96527e-05	-2.9	-6.82769e-05
0	-6.34835e-07	2	6.81213e-05	-2.85	-6.73951e-05
0	-6.55731e-07	2	6.73899e-05	-2.8	-6.70348e-05
0	-7.6977e-07	2	6.71893e-05	-2.75	-6.66741e-05
0	-5.60134e-07	2	6.65825e-05	-2.7	-6.59962e-05
0	-6.03387e-07	2	6.57626e-05	-2.65	-6.51628e-05
0	-9.0473e-07	2	6.52259e-05	-2.6	-6.43496e-05
0	-6.15862e-07	2	8.21955e-05	-2.55	-5.71512e-05
0	-2.53429e-05	2	8.19968e-05	-2.5	-5.67814e-05
0	-2.51493e-05	2	8.1063e-05	-2.45	-5.61353e-05
0	-2.49781e-05	2	8.23643e-05	-2.4	-5.43085e-05
0	-2.86098e-05	2	8.17382e-05	-2.35	-5.31609e-05
0	-2.99604e-05	2	8.229e-05	-2.3	-5.17e-05
0	-3.37304e-05	2	8.28266e-05	-2.25	-5.04678e-05
0	-3.37827e-05	2	8.18388e-05	-2.2	-4.716e-05
0	-3.51655e-05	2	8.19626e-05	-2.15	-4.55315e-05
0	-3.74291e-05	2	8.29332e-05	-2.1	-4.712e-05
0	-3.71222e-05	2	8.30147e-05	-2.05	-4.60254e-05
0	-3.6898e-05	2	8.24513e-05	-2	-4.51169e-05
0	-3.7937e-05	2	8.21471e-05	-1.95	-4.42396e-05
0	-3.72552e-05	2	8.12858e-05	-1.9	-4.34764e-05
0	-3.83221e-05	2	8.11079e-05	-1.85	-4.24057e-05
0	-3.92371e-05	2	8.06827e-05	-1.8	-4.0009e-05
0	-3.97794e-05	2	7.92659e-05	-1.75	-3.92873e-05
0	-4.06386e-05	2	7.91965e-05	-1.7	-3.82476e-05
0	-4.28475e-05	2	7.95025e-05	-1.65	-3.68703e-05
0	-4.30568e-05	2	7.90925e-05	-1.6	-3.60158e-05
0	-4.41909e-05	2	7.93477e-05	-1.55	-3.54305e-05
0	-4.4492e-05	2	7.92416e-05	-1.5	-3.40818e-05
0	-4.62271e-05	2	7.90914e-05	-1.45	-3.26728e-05
0	-4.80052e-05	2	7.96316e-05	-1.4	-3.15276e-05
0	-4.85166e-05	2	7.91797e-05	-1.35	-3.07204e-05
0	-4.85702e-05	2	7.86041e-05	-1.3	-3.01218e-05
0	-4.84262e-05	2	7.8224e-05	-1.25	-2.97662e-05
0	-4.89963e-05	2	7.85863e-05	-1.2	-2.86507e-05
0	-5.10954e-05	2	7.86598e-05	-1.15	-2.74842e-05
0	-5.09283e-05	2	7.80903e-05	-1.1	-2.61726e-05
0	-5.28559e-05	2	7.82192e-05	-1.05	-2.55275e-05
0	-5.32653e-05	2	7.88519e-05	-1	-2.4977e-05
0	-5.40359e-05	2	7.82767e-05	-0.95	-2.38119e-05
0	-5.452e-05	2	7.80029e-05	-0.9	-2.29634e-05
0	-5.54122e-05	2	7.76971e-05	-0.85	-2.22896e-05
0	-5.58389e-05	2	7.70296e-05	-0.8	-2.14047e-05
0	-5.55246e-05	2	7.67e-05	-0.75	-2.05802e-05
0	-5.5936e-05	2	7.61265e-05	-0.7	-1.99736e-05
0	-5.80827e-05	2	7.70253e-05	-0.65	-1.94153e-05
0	-5.82679e-05	2	7.68121e-05	-0.6	-1.90321e-05
0	-5.76219e-05	2	7.65285e-05	-0.55	-1.7945e-05
0	-5.92508e-05	2	7.66108e-05	-0.5	-1.73133e-05
0	-5.96879e-05	2	7.67837e-05	-0.45	-1.64953e-05
0	-6.08627e-05	2	7.64467e-05	-0.4	-1.58487e-05
0	-6.16079e-05	2	7.68827e-05	-0.35	-1.50575e-05
0	-6.1729e-05	2	7.58913e-05	-0.3	-1.44261e-05
0	-6.18635e-05	2	7.5323e-05	-0.25	-1.36283e-05
0	-6.28831e-05	2	7.53459e-05	-0.2	-1.29557e-05
0	-6.2622e-05	2	7.45241e-05	-0.15	-1.16105e-05
0	-6.4345e-05	2	7.51911e-05	-0.1	-1.06744e-05
0	-6.51269e-05	2	7.49578e-05	-0.05	-9.9877e-06
0	-6.57276e-05	2	7.49428e-05	0	-9.32119e-06
0	-6.59531e-05	2	7.44778e-05	0.05	-8.58878e-06
0	-6.65258e-05	2	7.44792e-05	0.1	-7.95388e-06
0	-6.64133e-05	2	7.40406e-05	0.15	-7.28236e-06
0	-6.71259e-05	2	7.39002e-05	0.2	-6.7291e-06
0	-6.78987e-05	2	7.41409e-05	0.25	-6.07311e-06
0	-6.82272e-05	2	7.35928e-05	0.3	-5.47863e-06
0	-6.90384e-05	2	7.36483e-05	0.35	-4.83184e-06
0	-6.91577e-05	2	7.30589e-05	0.4	-4.18216e-06
0	-6.99562e-05	2	7.36372e-05	0.45	-3.50544e-06
0	-7.05801e-05	2	7.33518e-05	0.5	-2.85576e-06
0	-7.07871e-05	2	7.31256e-05	0.55	-2.22576e-06
0	-7.14469e-05	2	7.31398e-05	0.6	-1.55095e-06
0	-7.24994e-05	2	7.32009e-05	0.65	-1.00683e-06
0	-7.26246e-05	2	7.32996e-05	0.7	-2.93411e-07
0	-7.34623e-05	2	7.29875e-05	0.75	3.53626e-07
0	-7.38286e-05	2	7.2833e-05	0.8	9.21432e-07
0	-7.41046e-05	2	7.2784e-05	0.85	1.55887e-06
0	-7.48724e-05	2	7.27795e-05	0.9	2.2344e-06
0	-7.52702e-05	2	7.26453e-05	0.95	2.82341e-06
0	-7.58901e-05	2	7.24278e-05	1	3.43391e-06
0	-7.63623e-05	2	7.2184e-05	1.05	4.04826e-06
0	-7.62657e-05	2	7.17435e-05	1.1	4.62008e-06
0	-7.66632e-05	2	7.12806e-05	1.15	5.26742e-06
0	-7.69616e-05	2	6.99587e-05	1.2	5.87145e-06
0	-7.72448e-05	2	7.11274e-05	1.25	6.38583e-06
0	-7.78068e-05	2	7.10811e-05	1.3	7.10132e-06
0	-7.8648e-05	2	7.09007e-05	1.35	7.58473e-06
0	-7.90346e-05	2	7.08842e-05	1.4	8.13332e-06
0	-7.97373e-05	2	7.08065e-05	1.45	8.71428e-06
0	-7.88217e-05	2	7.12825e-05	1.5	7.54198e-06
0	-7.90671e-05	2	7.10369e-05	1.55	7.86173e-06
0	-7.94649e-05	2	7.07596e-05	1.6	8.38571e-06
0	-7.96222e-05	2	7.1165e-05	1.65	8.65672e-06
0	-8.00518e-05	2	7.06242e-05	1.7	9.36882e-06
0	-8.01301e-05	2	7.05498e-05	1.75	1.004109e-05
0	-8.0479e-05	2	7.06748e-05	1.8	9.84944e-06
0	-7.87609e-05	2	7.21536e-05	1.85	5.94785e-06
0	-7.73506e-05	2	7.26139e-05	1.9	4.17879e-06
0	-7.70993e-05	2	7.31874e-05	1.95	3.86978e-06
0	-7.73451e-05	2	7.31345e-05	2	3.75713e-06
