Vs	Is	Vd	Id	Vg	Ig	
V	A	V	A	V	A	
0	-4.6693e-05	2	4.30852e-05	2	2.66894e-06
0	-4.62058e-05	2	4.40769e-05	1.95	2.22452e-06
0	-4.70137e-05	2	4.47631e-05	1.9	1.96389e-06
0	-4.6585e-05	2	4.55199e-05	1.85	1.71227e-06
0	-4.68759e-05	2	4.47569e-05	1.8	1.61462e-06
0	-4.63631e-05	2	4.48183e-05	1.75	1.41838e-06
0	-4.69355e-05	2	4.58736e-05	1.7	1.16289e-06
0	-4.64659e-05	2	4.55204e-05	1.65	9.91169e-07
0	-4.56467e-05	2	4.4591e-05	1.6	8.70383e-07
0	-4.56054e-05	2	4.41859e-05	1.55	7.5544e-07
0	-4.46207e-05	2	4.42848e-05	1.5	6.36511e-07
0	-4.48051e-05	2	4.32954e-05	1.45	5.39222e-07
0	-4.53014e-05	2	4.48072e-05	1.4	4.08502e-07
0	-4.40889e-05	2	4.41364e-05	1.35	3.22143e-07
0	-4.45213e-05	2	4.39456e-05	1.3	2.63735e-07
0	-4.41208e-05	2	4.44538e-05	1.25	1.90352e-07
0	-4.47413e-05	2	4.42517e-05	1.2	1.38254e-07
0	-4.42154e-05	2	4.39435e-05	1.15	1.08705e-07
0	-4.3969e-05	2	4.33442e-05	1.1	7.51122e-08
0	-4.30462e-05	2	4.26512e-05	1.05	4.93501e-08
0	-4.48195e-05	2	4.40464e-05	1	3.12167e-08
0	-4.3764e-05	2	4.3872e-05	0.95	1.99374e-08
0	-4.39646e-05	2	4.3377e-05	0.9	1.07441e-08
0	-4.41446e-05	2	4.49819e-05	0.85	3.575e-09
0	-4.52281e-05	2	4.5303e-05	0.8	1.8054e-09
0	-4.46457e-05	2	4.49055e-05	0.75	-1.4523e-10
0	-4.44404e-05	2	4.43849e-05	0.7	-1.58e-09
0	-4.52236e-05	2	4.5235e-05	0.65	-3.84775e-09
0	-4.49938e-05	2	4.50887e-05	0.6	-5.47004e-09
0	-4.4983e-05	2	4.47239e-05	0.55	-9.51608e-09
0	-4.4545e-05	2	4.45072e-05	0.5	-1.58127e-08
0	-4.41419e-05	2	4.45971e-05	0.45	-2.45813e-08
0	-4.5611e-05	2	4.55241e-05	0.4	-3.38989e-08
0	-4.53777e-05	2	4.52593e-05	0.35	-4.72342e-08
0	-4.57068e-05	2	4.59568e-05	0.3	-6.90759e-08
0	-4.67212e-05	2	4.71968e-05	0.25	-8.94695e-08
0	-4.57827e-05	2	4.55447e-05	0.2	-1.09189e-07
0	-4.56614e-05	2	4.52491e-05	0.15	-1.18912e-07
0	-4.4336e-05	2	4.37992e-05	0.1	-1.64922e-07
0	-4.54683e-05	2	4.50917e-05	0.05	-2.01641e-07
0	-4.57524e-05	2	4.58072e-05	0	-2.324e-07
0	-4.48121e-05	2	4.50563e-05	-0.05	-2.49712e-07
0	-4.42594e-05	2	4.47948e-05	-0.1	-2.84057e-07
0	-4.49875e-05	2	4.55178e-05	-0.15	-3.20014e-07
0	-4.53809e-05	2	4.54774e-05	-0.2	-3.64075e-07
0	-4.4726e-05	2	4.45284e-05	-0.25	-4.11909e-07
0	-4.41854e-05	2	4.4551e-05	-0.3	-4.00773e-07
0	-4.36462e-05	2	4.42382e-05	-0.35	-4.50816e-07
0	-4.42335e-05	2	4.44688e-05	-0.4	-4.99998e-07
0	-4.39982e-05	2	4.50029e-05	-0.45	-5.32749e-07
0	-4.40173e-05	2	4.49107e-05	-0.5	-5.95263e-07
0	-4.48227e-05	2	4.54092e-05	-0.55	-6.44601e-07
0	-4.58907e-05	2	4.65653e-05	-0.6	-7.31349e-07
0	-4.56376e-05	2	4.6801e-05	-0.65	-7.42062e-07
0	-4.60391e-05	2	4.68701e-05	-0.7	-8.18194e-07
0	-4.59871e-05	2	4.62128e-05	-0.75	-8.69198e-07
0	-4.55352e-05	2	4.69091e-05	-0.8	-9.51061e-07
0	-4.55837e-05	2	4.64023e-05	-0.85	-1.035295e-06
0	-4.51238e-05	2	4.59337e-05	-0.9	-1.075772e-06
0	-4.49327e-05	2	4.58283e-05	-0.95	-1.09425e-06
0	-4.45299e-05	2	4.59376e-05	-1	-1.24375e-06
0	-4.40769e-05	2	4.58748e-05	-1.05	-1.30969e-06
0	-4.42288e-05	2	4.5673e-05	-1.1	-1.33115e-06
0	-4.47269e-05	2	4.62747e-05	-1.15	-1.42588e-06
0	-4.41553e-05	2	4.60536e-05	-1.2	-1.43899e-06
0	-4.46509e-05	2	4.63168e-05	-1.25	-1.49392e-06
0	-4.46656e-05	2	4.62602e-05	-1.3	-1.59876e-06
0	-4.46523e-05	2	4.62842e-05	-1.35	-1.71307e-06
0	-4.43958e-05	2	4.64962e-05	-1.4	-1.81142e-06
0	-4.46737e-05	2	4.66003e-05	-1.45	-1.90116e-06
0	-4.42079e-05	2	4.6813e-05	-1.5	-1.87904e-06
0	-4.50414e-05	2	4.70081e-05	-1.55	-1.95023e-06
0	-4.48296e-05	2	4.73393e-05	-1.6	-2.10402e-06
0	-4.54699e-05	2	4.81202e-05	-1.65	-2.08807e-06
0	-4.55143e-05	2	4.80166e-05	-1.7	-2.25147e-06
0	-4.57913e-05	2	4.8315e-05	-1.75	-2.30073e-06
0	-4.60005e-05	2	4.82977e-05	-1.8	-2.40057e-06
0	-4.60368e-05	2	4.80629e-05	-1.85	-2.43695e-06
0	-4.60273e-05	2	4.83266e-05	-1.9	-2.56339e-06
0	-4.59264e-05	2	4.8568e-05	-1.95	-2.64861e-06
0	-4.57622e-05	2	4.83606e-05	-2	-2.78181e-06
0	-4.53838e-05	2	4.82437e-05	-2.05	-2.83594e-06
0	-4.59438e-05	2	4.87127e-05	-2.1	-3.02275e-06
0	-4.58287e-05	2	4.91864e-05	-2.15	-3.06642e-06
0	-4.55741e-05	2	4.85794e-05	-2.2	-3.04276e-06
0	-4.55189e-05	2	4.86322e-05	-2.25	-2.99507e-06
0	-4.58412e-05	2	4.85957e-05	-2.3	-2.95526e-06
0	-4.57359e-05	2	4.88162e-05	-2.35	-2.83841e-06
0	-4.52434e-05	2	4.81813e-05	-2.4	-2.87068e-06
0	-4.49753e-05	2	4.84172e-05	-2.45	-2.91394e-06
0	-4.52091e-05	2	4.8199e-05	-2.5	-2.97324e-06
0	-4.51089e-05	2	4.80002e-05	-2.55	-2.97962e-06
0	-4.54022e-05	2	4.85087e-05	-2.6	-3.00575e-06
0	-4.5351e-05	2	4.84155e-05	-2.65	-3.02731e-06
0	-4.57353e-05	2	4.88939e-05	-2.7	-2.97004e-06
0	-4.59183e-05	2	4.89595e-05	-2.75	-3.04615e-06
0	-4.56687e-05	2	4.8577e-05	-2.8	-2.98952e-06
0	-4.49169e-05	2	4.87557e-05	-2.85	-3.01148e-06
0	-4.58171e-05	2	4.87592e-05	-2.9	-2.90354e-06
0	-4.59097e-05	2	4.8723e-05	-2.95	-2.78231e-06
0	-4.57434e-05	2	4.88275e-05	-3	-2.87678e-06
0	-4.56133e-05	2	4.87244e-05	-3.05	-2.97151e-06
0	-4.57176e-05	2	4.87424e-05	-3.1	-3.06053e-06
0	-4.5638e-05	2	4.8899e-05	-3.15	-3.0665e-06
0	-4.59346e-05	2	4.89485e-05	-3.2	-3.11668e-06
0	-4.56441e-05	2	4.88354e-05	-3.25	-3.04729e-06
0	-4.5811e-05	2	4.88496e-05	-3.3	-3.13131e-06
0	-4.5524e-05	2	4.88159e-05	-3.35	-3.28494e-06
0	-4.51948e-05	2	4.86611e-05	-3.4	-3.11489e-06
0	-4.52308e-05	2	4.83514e-05	-3.45	-3.09387e-06
0	-4.51273e-05	2	4.85096e-05	-3.5	-3.24328e-06
0	-4.51178e-05	2	4.86551e-05	-3.55	-3.42271e-06
0	-4.52413e-05	2	4.85877e-05	-3.6	-3.40349e-06
0	-4.53226e-05	2	4.84644e-05	-3.65	-3.21152e-06
0	-4.53141e-05	2	4.8664e-05	-3.7	-3.29967e-06
0	-4.48396e-05	2	4.8193e-05	-3.75	-3.33386e-06
0	-4.55138e-05	2	4.85914e-05	-3.8	-3.48013e-06
0	-4.47923e-05	2	4.8633e-05	-3.85	-3.56956e-06
0	-4.44299e-05	2	4.78614e-05	-3.9	-3.67431e-06
0	-4.45711e-05	2	4.80897e-05	-3.95	-3.41033e-06
0	-4.46847e-05	2	4.80735e-05	-4	-3.34962e-06
0	-4.45974e-05	2	4.7677e-05	-4.05	-3.33321e-06
0	-4.38242e-05	2	4.70624e-05	-4.1	-3.51068e-06
0	-4.40369e-05	2	4.75402e-05	-4.15	-3.50445e-06
0	-4.35852e-05	2	4.72234e-05	-4.2	-3.50648e-06
0	-4.3367e-05	2	4.65717e-05	-4.25	-3.62296e-06
0	-4.3571e-05	2	4.75529e-05	-4.3	-3.46337e-06
0	-4.45511e-05	2	4.7912e-05	-4.35	-3.4443e-06
0	-4.41285e-05	2	4.78723e-05	-4.4	-3.41304e-06
0	-4.43368e-05	2	4.74881e-05	-4.45	-3.30186e-06
0	-4.34175e-05	2	4.67405e-05	-4.5	-3.2982e-06
0	-4.3684e-05	2	4.69016e-05	-4.55	-3.21917e-06
0	-4.42171e-05	2	4.76105e-05	-4.6	-3.20099e-06
0	-4.45704e-05	2	4.75509e-05	-4.65	-2.99773e-06
0	-4.43183e-05	2	4.7437e-05	-4.7	-3.24954e-06
0	-4.40591e-05	2	4.73405e-05	-4.75	-3.35944e-06
0	-4.41006e-05	2	4.73896e-05	-4.8	-3.10514e-06
0	-4.42653e-05	2	4.72035e-05	-4.85	-3.04449e-06
0	-4.46464e-05	2	4.74392e-05	-4.9	-3.11182e-06
0	-4.49968e-05	2	4.77511e-05	-4.95	-2.93726e-06
0	-4.43763e-05	2	4.71756e-05	-5	-2.99713e-06
0	-4.48614e-05	2	4.80106e-05	-5.05	-2.99458e-06
0	-4.49606e-05	2	4.80076e-05	-5.1	-3.09126e-06
0	-4.48199e-05	2	4.73599e-05	-5.15	-2.9782e-06
0	-4.43577e-05	2	4.72841e-05	-5.2	-3.04869e-06
0	-4.37515e-05	2	4.74517e-05	-5.25	-3.02752e-06
0	-4.44885e-05	2	4.71329e-05	-5.3	-2.93605e-06
0	-4.37663e-05	2	4.63077e-05	-5.35	-3.10334e-06
0	-4.35817e-05	2	4.65778e-05	-5.4	-2.96103e-06
0	-4.30081e-05	2	4.64867e-05	-5.45	-2.87049e-06
0	-4.39909e-05	2	4.71533e-05	-5.5	-2.97104e-06
0	-4.42249e-05	2	4.70471e-05	-5.55	-2.98023e-06
0	-4.41203e-05	2	4.69857e-05	-5.6	-3.18028e-06
0	-4.34667e-05	2	4.74287e-05	-5.65	-2.96198e-06
0	-4.40828e-05	2	4.67024e-05	-5.7	-2.89204e-06
0	-4.36833e-05	2	4.65979e-05	-5.75	-2.94391e-06
0	-4.31254e-05	2	4.57373e-05	-5.8	-3.09433e-06
0	-4.25561e-05	2	4.65191e-05	-5.85	-2.92112e-06
0	-4.30719e-05	2	4.56708e-05	-5.9	-3.01564e-06
0	-4.25928e-05	2	4.57473e-05	-5.95	-2.91536e-06
0	-4.25249e-05	2	4.50123e-05	-6	-2.92672e-06
0	-4.2311e-05	2	4.5252e-05	-6	-2.82865e-06
0	-4.29415e-05	2	4.5963e-05	-5.95	-2.81853e-06
0	-4.3552e-05	2	4.62486e-05	-5.9	-3.04184e-06
0	-4.37311e-05	2	4.62968e-05	-5.85	-3.05997e-06
0	-4.36755e-05	2	4.61878e-05	-5.8	-2.69328e-06
0	-4.33968e-05	2	4.56753e-05	-5.75	-2.43575e-06
0	-4.35167e-05	2	4.61076e-05	-5.7	-2.53425e-06
0	-4.37473e-05	2	4.6516e-05	-5.65	-2.68899e-06
0	-4.45239e-05	2	4.71175e-05	-5.6	-2.56821e-06
0	-4.3989e-05	2	4.65322e-05	-5.55	-2.57162e-06
0	-4.38657e-05	2	4.66581e-05	-5.5	-2.53712e-06
0	-4.38412e-05	2	4.64214e-05	-5.45	-2.46773e-06
0	-4.42095e-05	2	4.6268e-05	-5.4	-2.44871e-06
0	-4.38686e-05	2	4.61856e-05	-5.35	-2.61183e-06
0	-4.37686e-05	2	4.60521e-05	-5.3	-2.47349e-06
0	-4.33625e-05	2	4.63848e-05	-5.25	-2.49247e-06
0	-4.38492e-05	2	4.65341e-05	-5.2	-2.5848e-06
0	-4.3604e-05	2	4.61438e-05	-5.15	-2.52915e-06
0	-4.37621e-05	2	4.58089e-05	-5.1	-2.76706e-06
0	-4.33646e-05	2	4.58863e-05	-5.05	-2.78753e-06
0	-4.35965e-05	2	4.61865e-05	-5	-2.45008e-06
0	-4.31139e-05	2	4.5383e-05	-4.95	-2.42921e-06
0	-4.29098e-05	2	4.5215e-05	-4.9	-2.45659e-06
0	-4.29998e-05	2	4.50965e-05	-4.85	-2.33521e-06
0	-4.2791e-05	2	4.50382e-05	-4.8	-2.19412e-06
0	-4.21536e-05	2	4.43072e-05	-4.75	-2.27847e-06
0	-4.22097e-05	2	4.4664e-05	-4.7	-2.26822e-06
0	-4.26521e-05	2	4.40157e-05	-4.65	-2.22505e-06
0	-4.19303e-05	2	4.41383e-05	-4.6	-2.19184e-06
0	-4.21228e-05	2	4.43725e-05	-4.55	-2.14986e-06
0	-4.29327e-05	2	4.57925e-05	-4.5	-2.2128e-06
0	-4.38425e-05	2	4.5973e-05	-4.45	-2.17228e-06
0	-4.2952e-05	2	4.57954e-05	-4.4	-2.15175e-06
0	-4.38553e-05	2	4.61408e-05	-4.35	-2.20813e-06
0	-4.42483e-05	2	4.64176e-05	-4.3	-2.0966e-06
0	-4.47916e-05	2	4.71524e-05	-4.25	-2.04947e-06
0	-4.53279e-05	2	4.72951e-05	-4.2	-2.04971e-06
0	-4.53957e-05	2	4.7277e-05	-4.15	-2.04884e-06
0	-4.49932e-05	2	4.68307e-05	-4.1	-2.05981e-06
0	-4.44673e-05	2	4.67777e-05	-4.05	-2.1951e-06
0	-4.51709e-05	2	4.71119e-05	-4	-1.97049e-06
0	-4.48485e-05	2	4.59697e-05	-3.95	-1.8063e-06
0	-4.4701e-05	2	4.65685e-05	-3.9	-1.75286e-06
0	-4.50359e-05	2	4.65888e-05	-3.85	-1.75665e-06
0	-4.41694e-05	2	4.58386e-05	-3.8	-1.75311e-06
0	-4.42714e-05	2	4.58414e-05	-3.75	-1.7278e-06
0	-4.42972e-05	2	4.63073e-05	-3.7	-1.61364e-06
0	-4.45774e-05	2	4.61966e-05	-3.65	-1.56028e-06
0	-4.44146e-05	2	4.59894e-05	-3.6	-1.53769e-06
0	-4.50206e-05	2	4.60994e-05	-3.55	-1.47585e-06
0	-4.43503e-05	2	4.61729e-05	-3.5	-1.5172e-06
0	-4.45054e-05	2	4.59464e-05	-3.45	-1.49714e-06
0	-4.48362e-05	2	4.62724e-05	-3.4	-1.47744e-06
0	-4.5143e-05	2	4.64117e-05	-3.35	-1.47391e-06
0	-4.49814e-05	2	4.64172e-05	-3.3	-1.38912e-06
0	-4.49773e-05	2	4.63934e-05	-3.25	-1.41685e-06
0	-4.52496e-05	2	4.69018e-05	-3.2	-1.28706e-06
0	-4.53888e-05	2	4.72825e-05	-3.15	-1.28863e-06
0	-4.56161e-05	2	4.73872e-05	-3.1	-1.30892e-06
0	-4.61996e-05	2	4.74966e-05	-3.05	-1.32303e-06
0	-4.6115e-05	2	4.72357e-05	-3	-1.22268e-06
0	-4.59848e-05	2	4.71488e-05	-2.95	-1.20407e-06
0	-4.56677e-05	2	4.71761e-05	-2.9	-1.25563e-06
0	-4.58502e-05	2	4.73101e-05	-2.85	-1.18656e-06
0	-4.60366e-05	2	4.73838e-05	-2.8	-1.1112e-06
0	-4.63566e-05	2	4.76277e-05	-2.75	-1.10529e-06
0	-4.62903e-05	2	4.67734e-05	-2.7	-1.14157e-06
0	-4.60764e-05	2	4.7126e-05	-2.65	-1.16909e-06
0	-4.5985e-05	2	4.70738e-05	-2.6	-1.04818e-06
0	-4.6091e-05	2	4.71088e-05	-2.55	-9.8802e-07
0	-4.61995e-05	2	4.69911e-05	-2.5	-9.7192e-07
0	-4.57223e-05	2	4.67105e-05	-2.45	-9.32514e-07
0	-4.54397e-05	2	4.69361e-05	-2.4	-8.88742e-07
0	-4.57278e-05	2	4.65545e-05	-2.35	-8.68197e-07
0	-4.58696e-05	2	4.66616e-05	-2.3	-8.40427e-07
0	-4.50072e-05	2	4.63116e-05	-2.25	-7.85333e-07
0	-4.55886e-05	2	4.73232e-05	-2.2	-7.5722e-07
0	-4.56102e-05	2	4.66241e-05	-2.15	-7.46748e-07
0	-4.57679e-05	2	4.65788e-05	-2.1	-7.03227e-07
0	-4.57291e-05	2	4.62844e-05	-2.05	-6.60633e-07
0	-4.56932e-05	2	4.65252e-05	-2	-6.64504e-07
0	-4.63872e-05	2	4.68445e-05	-1.95	-6.14141e-07
0	-4.64457e-05	2	4.69663e-05	-1.9	-5.73117e-07
0	-4.65901e-05	2	4.73668e-05	-1.85	-5.31286e-07
0	-4.64893e-05	2	4.70258e-05	-1.8	-5.11463e-07
0	-4.62366e-05	2	4.67397e-05	-1.75	-4.93499e-07
0	-4.66123e-05	2	4.70904e-05	-1.7	-4.73672e-07
0	-4.6433e-05	2	4.66837e-05	-1.65	-4.41205e-07
0	-4.67515e-05	2	4.73582e-05	-1.6	-4.24897e-07
0	-4.69486e-05	2	4.72343e-05	-1.55	-3.99417e-07
0	-4.68891e-05	2	4.71706e-05	-1.5	-3.71789e-07
0	-4.67251e-05	2	4.70918e-05	-1.45	-3.65869e-07
0	-4.6849e-05	2	4.72034e-05	-1.4	-3.39873e-07
0	-4.67904e-05	2	4.71287e-05	-1.35	-3.12922e-07
0	-4.69322e-05	2	4.69888e-05	-1.3	-2.94279e-07
0	-4.67035e-05	2	4.73199e-05	-1.25	-2.78314e-07
0	-4.67646e-05	2	4.70435e-05	-1.2	-2.64353e-07
0	-4.67963e-05	2	4.70242e-05	-1.15	-2.46553e-07
0	-4.67839e-05	2	4.69561e-05	-1.1	-2.13301e-07
0	-4.6501e-05	2	4.67514e-05	-1.05	-2.15728e-07
0	-4.70701e-05	2	4.70684e-05	-1	-1.86428e-07
0	-4.63152e-05	2	4.65845e-05	-0.95	-1.84236e-07
0	-4.7122e-05	2	4.70877e-05	-0.9	-1.80031e-07
0	-4.6996e-05	2	4.72331e-05	-0.85	-1.6164e-07
0	-4.6947e-05	2	4.72233e-05	-0.8	-1.45529e-07
0	-4.67674e-05	2	4.71152e-05	-0.75	-1.41327e-07
0	-4.70369e-05	2	4.74123e-05	-0.7	-1.39107e-07
0	-4.68264e-05	2	4.70931e-05	-0.65	-1.23904e-07
0	-4.71679e-05	2	4.71965e-05	-0.6	-1.16882e-07
0	-4.69608e-05	2	4.71354e-05	-0.55	-1.11255e-07
0	-4.71424e-05	2	4.72357e-05	-0.5	-1.02991e-07
0	-4.71068e-05	2	4.68309e-05	-0.45	-1.00338e-07
0	-4.69254e-05	2	4.7153e-05	-0.4	-8.68038e-08
0	-4.75906e-05	2	4.74021e-05	-0.35	-8.10082e-08
0	-4.71992e-05	2	4.72643e-05	-0.3	-7.68623e-08
0	-4.71688e-05	2	4.70742e-05	-0.25	-7.21091e-08
0	-4.70428e-05	2	4.73252e-05	-0.2	-6.90884e-08
0	-4.72662e-05	2	4.73371e-05	-0.15	-6.50557e-08
0	-4.73701e-05	2	4.76529e-05	-0.1	-5.58509e-08
0	-4.77407e-05	2	4.77692e-05	-0.05	-5.77582e-08
0	-4.74441e-05	2	4.7647e-05	0	-4.30695e-08
0	-4.75489e-05	2	4.74417e-05	0.05	-3.827e-08
0	-4.76308e-05	2	4.80659e-05	0.1	-3.52275e-08
0	-4.75685e-05	2	4.73559e-05	0.15	-3.19383e-08
0	-4.75516e-05	2	4.75891e-05	0.2	-2.74387e-08
0	-4.74124e-05	2	4.74156e-05	0.25	-2.28245e-08
0	-4.73451e-05	2	4.73168e-05	0.3	-1.99791e-08
0	-4.72925e-05	2	4.73688e-05	0.35	-1.64017e-08
0	-4.75048e-05	2	4.78974e-05	0.4	-1.18783e-08
0	-4.80002e-05	2	4.79907e-05	0.45	-7.76463e-09
0	-4.77491e-05	2	4.79489e-05	0.5	-7.15526e-09
0	-4.78628e-05	2	4.77784e-05	0.55	-4.63817e-09
0	-4.79655e-05	2	4.77308e-05	0.6	-2.86656e-09
0	-4.78336e-05	2	4.81822e-05	0.65	-1.87977e-09
0	-4.7814e-05	2	4.77651e-05	0.7	-9.9547e-10
0	-4.74388e-05	2	4.7367e-05	0.75	-3.1381e-10
0	-4.74402e-05	2	4.73448e-05	0.8	3.3354e-10
0	-4.74504e-05	2	4.75676e-05	0.85	1.09777e-09
0	-4.78905e-05	2	4.77055e-05	0.9	3.0336e-09
0	-4.75513e-05	2	4.77513e-05	0.95	6.93919e-09
0	-4.77169e-05	2	4.78104e-05	1	1.75099e-08
0	-4.74465e-05	2	4.74789e-05	1.05	3.39719e-08
0	-4.72433e-05	2	4.75449e-05	1.1	6.69131e-08
0	-4.75341e-05	2	4.72839e-05	1.15	1.31159e-07
0	-4.77842e-05	2	4.7697e-05	1.2	2.11331e-07
0	-4.7567e-05	2	4.74852e-05	1.25	3.54696e-07
0	-4.76505e-05	2	4.72473e-05	1.3	4.72743e-07
0	-4.79332e-05	2	4.71737e-05	1.35	5.80335e-07
0	-4.79394e-05	2	4.70202e-05	1.4	7.47231e-07
0	-4.77053e-05	2	4.66839e-05	1.45	8.67292e-07
0	-4.7738e-05	2	4.65848e-05	1.5	1.105205e-06
0	-4.78794e-05	2	4.69994e-05	1.55	1.244e-06
0	-4.80427e-05	2	4.65979e-05	1.6	1.442e-06
0	-4.78e-05	2	4.60423e-05	1.65	1.52864e-06
0	-4.79239e-05	2	4.64466e-05	1.7	1.81521e-06
0	-4.86881e-05	2	4.66741e-05	1.75	1.88633e-06
0	-4.85127e-05	2	4.62757e-05	1.8	2.12253e-06
0	-4.87408e-05	2	4.65832e-05	1.85	2.24143e-06
0	-4.89122e-05	2	4.64255e-05	1.9	2.44607e-06
0	-4.87835e-05	2	4.64406e-05	1.95	2.58501e-06
0	-4.93477e-05	2	4.66305e-05	2	2.75331e-06
