Vs	Is	Vd	Id	Vg	Ig	
V	A	V	A	V	A	
0	-1.50679e-06	2	1.38698e-06	2	9.92853e-08
0	-1.51749e-06	2	1.30604e-06	1.95	1.115877e-07
0	-1.26567e-06	2	1.14595e-06	1.9	9.1959e-08
0	-1.29412e-06	2	1.16254e-06	1.85	7.20025e-08
0	-1.26526e-06	2	1.19763e-06	1.8	5.64847e-08
0	-1.25392e-06	2	1.21818e-06	1.75	4.46375e-08
0	-1.26904e-06	2	1.22202e-06	1.7	2.9482e-08
0	-1.26985e-06	2	1.2562e-06	1.65	2.61014e-08
0	-1.34832e-06	2	1.23871e-06	1.6	2.52126e-08
0	-1.2568e-06	2	1.21819e-06	1.55	1.68395e-08
0	-1.26061e-06	2	1.25513e-06	1.5	1.19098e-08
0	-1.27022e-06	2	1.27041e-06	1.45	7.06022e-09
0	-1.33643e-06	2	1.2937e-06	1.4	5.93572e-09
0	-1.26286e-06	2	1.28307e-06	1.35	3.88933e-09
0	-1.28235e-06	2	1.31225e-06	1.3	1.91633e-09
0	-1.31933e-06	2	1.27902e-06	1.25	7.7773e-10
0	-1.20923e-06	2	1.17885e-06	1.2	7.5767e-10
0	-1.30961e-06	2	1.33739e-06	1.15	-1.37341e-09
0	-1.33868e-06	2	1.36154e-06	1.1	-3.16564e-09
0	-1.32975e-06	2	1.34896e-06	1.05	-4.62627e-09
0	-1.44286e-06	2	1.49623e-06	1	-8.8646e-09
0	-1.52787e-06	2	1.55956e-06	0.95	-1.55975e-08
0	-1.49675e-06	2	1.46767e-06	0.9	-2.58158e-08
0	-1.45173e-06	2	1.50267e-06	0.85	-2.39485e-08
0	-1.48064e-06	2	1.5422e-06	0.8	-4.96732e-08
0	-1.47975e-06	2	1.54498e-06	0.75	-5.38947e-08
0	-1.40963e-06	2	1.48612e-06	0.7	-6.66278e-08
0	-1.40102e-06	2	1.51648e-06	0.65	-7.75018e-08
0	-1.3938e-06	2	1.47869e-06	0.6	-8.34935e-08
0	-1.39007e-06	2	1.47165e-06	0.55	-1.019143e-07
0	-1.43994e-06	2	1.54129e-06	0.5	-1.2769e-07
0	-1.44367e-06	2	1.63574e-06	0.45	-1.79035e-07
0	-1.43675e-06	2	1.67195e-06	0.4	-2.0543e-07
0	-1.41567e-06	2	1.51937e-06	0.35	-2.36846e-07
0	-1.32178e-06	2	1.64992e-06	0.3	-1.89333e-07
0	-1.30502e-06	2	1.53152e-06	0.25	-2.40305e-07
0	-1.15472e-06	2	1.43747e-06	0.2	-2.91307e-07
0	-1.16268e-06	2	1.51673e-06	0.15	-3.85516e-07
0	-1.07723e-06	2	1.46305e-06	0.1	-4.38429e-07
0	-1.09366e-06	2	1.64059e-06	0.05	-5.81769e-07
0	-1.08132e-06	2	1.68065e-06	0	-5.47297e-07
0	-9.832e-07	2	1.60207e-06	-0.05	-6.24548e-07
0	-9.23692e-07	2	1.53907e-06	-0.1	-5.31339e-07
0	-9.94849e-07	2	1.41611e-06	-0.15	-4.70538e-07
0	-8.80191e-07	2	1.49738e-06	-0.2	-5.04685e-07
0	-8.96201e-07	2	1.5253e-06	-0.25	-5.89667e-07
0	-8.73952e-07	2	1.4915e-06	-0.3	-6.15593e-07
0	-9.1065e-07	2	1.59831e-06	-0.35	-6.59519e-07
0	-9.22093e-07	2	1.65585e-06	-0.4	-7.59538e-07
0	-9.19089e-07	2	1.72859e-06	-0.45	-8.34758e-07
0	-8.75796e-07	2	1.79038e-06	-0.5	-9.77098e-07
0	-8.45085e-07	2	2.11936e-06	-0.55	-1.16608e-06
0	-9.58659e-07	2	2.17468e-06	-0.6	-1.16313e-06
0	-7.09209e-07	2	1.78858e-06	-0.65	-1.17989e-06
0	-7.90042e-07	2	2.05318e-06	-0.7	-1.27288e-06
0	-7.01925e-07	2	2.02786e-06	-0.75	-1.35606e-06
0	-6.15218e-07	2	2.35236e-06	-0.8	-1.80682e-06
0	-4.95246e-07	2	2.47233e-06	-0.85	-1.91041e-06
0	-5.32203e-07	2	2.42254e-06	-0.9	-1.90325e-06
0	-4.25415e-07	2	2.50138e-06	-0.95	-2.01416e-06
0	-4.85067e-07	2	2.56406e-06	-1	-2.11076e-06
0	-4.28323e-07	2	2.58311e-06	-1.05	-2.16458e-06
0	-4.48442e-07	2	2.61895e-06	-1.1	-2.23613e-06
0	-3.81792e-07	2	2.71713e-06	-1.15	-2.25257e-06
0	-4.05871e-07	2	2.81821e-06	-1.2	-2.47796e-06
0	-4.30748e-07	2	2.95824e-06	-1.25	-2.63526e-06
0	-3.86874e-07	2	2.93126e-06	-1.3	-2.59423e-06
0	-4.4071e-07	2	3.34858e-06	-1.35	-2.91488e-06
0	-4.38383e-07	2	3.30699e-06	-1.4	-2.90651e-06
0	-2.83856e-07	2	3.12087e-06	-1.45	-2.88273e-06
0	-2.97935e-07	2	3.35131e-06	-1.5	-2.94956e-06
0	-2.94393e-07	2	3.49981e-06	-1.55	-3.13667e-06
0	-3.067e-07	2	3.86377e-06	-1.6	-3.48583e-06
0	-2.93425e-07	2	3.51483e-06	-1.65	-3.49899e-06
0	-1.83823e-07	2	3.62351e-06	-1.7	-3.55026e-06
0	-2.83614e-07	2	3.88934e-06	-1.75	-3.57415e-06
0	-1.75047e-07	2	3.81588e-06	-1.8	-3.56236e-06
0	-1.40022e-07	2	3.74332e-06	-1.85	-3.59472e-06
0	-1.42096e-07	2	3.99687e-06	-1.9	-3.74459e-06
0	-1.32122e-07	2	4.12188e-06	-1.95	-3.97282e-06
0	-1.20822e-07	2	4.02713e-06	-2	-3.9216e-06
0	-1.15544e-07	2	4.10007e-06	-2.05	-4.04404e-06
0	-1.050339e-07	2	4.30662e-06	-2.1	-4.14158e-06
0	-6.14255e-08	2	4.63146e-06	-2.15	-4.44614e-06
0	-3.81027e-08	2	4.30761e-06	-2.2	-4.27034e-06
0	-3.08578e-08	2	4.33992e-06	-2.25	-4.21604e-06
0	-3.34707e-08	2	4.36566e-06	-2.3	-4.33861e-06
0	-3.36729e-08	2	4.24527e-06	-2.35	-4.50195e-06
0	-2.41769e-08	2	4.82804e-06	-2.4	-4.71708e-06
0	-2.35249e-08	2	4.54833e-06	-2.45	-4.64796e-06
0	-1.47762e-08	2	4.52773e-06	-2.5	-4.5287e-06
0	-1.47999e-08	2	4.68961e-06	-2.55	-4.65676e-06
0	-1.53741e-08	2	5.13174e-06	-2.6	-4.83088e-06
0	-2.34528e-08	2	5.14008e-06	-2.65	-5.1738e-06
0	-2.2637e-08	2	5.18551e-06	-2.7	-5.31805e-06
0	-1.64682e-08	2	5.34828e-06	-2.75	-5.49025e-06
0	-1.78144e-08	2	5.687e-06	-2.8	-6.02564e-06
0	-5.07041e-08	2	6.14246e-06	-2.85	-6.91783e-06
0	-6.69818e-08	2	7.14737e-06	-2.9	-7.13265e-06
0	-7.59258e-08	2	7.25507e-06	-2.95	-7.26219e-06
0	-5.59921e-08	2	7.09121e-06	-3	-7.03199e-06
0	-5.87991e-08	2	7.06454e-06	-3.05	-7.06546e-06
0	-6.30266e-08	2	7.3012e-06	-3.1	-6.9472e-06
0	-6.3059e-08	2	6.86022e-06	-3.15	-6.73828e-06
0	-5.85324e-08	2	6.88603e-06	-3.2	-6.946e-06
0	-4.29942e-08	2	7.38749e-06	-3.25	-7.35566e-06
0	-4.73407e-08	2	7.44459e-06	-3.3	-7.44399e-06
0	-4.84808e-08	2	7.50382e-06	-3.35	-7.60913e-06
0	-3.51742e-08	2	7.8536e-06	-3.4	-7.84717e-06
0	-3.98679e-08	2	8.17181e-06	-3.45	-8.10534e-06
0	-5.4299e-08	2	8.01587e-06	-3.5	-8.04278e-06
0	-5.17895e-08	2	7.76344e-06	-3.55	-7.58774e-06
0	-5.24184e-08	2	7.7426e-06	-3.6	-7.64732e-06
0	-5.62006e-08	2	7.81729e-06	-3.65	-7.70796e-06
0	-5.22015e-08	2	7.98067e-06	-3.7	-7.73253e-06
0	-5.89978e-08	2	7.91358e-06	-3.75	-7.70695e-06
0	-5.86866e-08	2	7.71034e-06	-3.8	-7.60656e-06
0	-6.81132e-08	2	7.76083e-06	-3.85	-7.56841e-06
0	-5.19287e-08	2	7.95543e-06	-3.9	-8.04942e-06
0	-4.71919e-08	2	8.58448e-06	-3.95	-8.24598e-06
0	-5.35634e-08	2	8.46473e-06	-4	-8.14885e-06
0	-5.11067e-08	2	8.78368e-06	-4.05	-8.36756e-06
0	-2.04768e-07	2	8.44272e-06	-4.1	-8.11917e-06
0	-1.79651e-07	2	8.37443e-06	-4.15	-7.8768e-06
0	-1.53319e-07	2	8.07111e-06	-4.2	-7.66853e-06
0	-1.11326e-07	2	7.8955e-06	-4.25	-7.70663e-06
0	-1.04391e-07	2	8.55495e-06	-4.3	-8.14702e-06
0	-1.40883e-07	2	7.99006e-06	-4.35	-7.85625e-06
0	-8.45667e-08	2	7.70038e-06	-4.4	-8.31596e-06
0	-1.29416e-07	2	8.46545e-06	-4.45	-8.30751e-06
0	-1.08117e-07	2	8.68952e-06	-4.5	-8.51543e-06
0	-1.50347e-07	2	8.6694e-06	-4.55	-8.40744e-06
0	-1.43342e-07	2	8.68309e-06	-4.6	-8.42569e-06
0	-1.55144e-07	2	8.61982e-06	-4.65	-8.52804e-06
0	-1.48114e-07	2	8.62737e-06	-4.7	-8.4129e-06
0	-1.17351e-07	2	8.62197e-06	-4.75	-8.49073e-06
0	-9.1121e-08	2	8.55637e-06	-4.8	-8.39925e-06
0	-1.16325e-07	2	8.59672e-06	-4.85	-8.31543e-06
0	-1.11608e-07	2	8.48369e-06	-4.9	-8.39775e-06
0	-1.23045e-07	2	8.40514e-06	-4.95	-8.43098e-06
0	-9.6793e-08	2	8.44734e-06	-5	-8.21819e-06
0	-9.99284e-08	2	8.72902e-06	-5.05	-8.50182e-06
0	-1.05484e-07	2	8.19123e-06	-5.1	-8.02859e-06
0	-5.56152e-08	2	7.83899e-06	-5.15	-7.89823e-06
0	-7.84956e-08	2	8.07333e-06	-5.2	-8.03595e-06
0	-6.46545e-08	2	8.11372e-06	-5.25	-7.95339e-06
0	-4.63383e-08	2	8.18217e-06	-5.3	-8.12191e-06
0	-5.77581e-08	2	8.19328e-06	-5.35	-8.08341e-06
0	-5.81459e-08	2	7.98903e-06	-5.4	-8.01377e-06
0	-1.11706e-07	2	8.93038e-06	-5.45	-8.64978e-06
0	-1.82922e-07	2	8.99279e-06	-5.5	-8.74482e-06
0	-1.028613e-07	2	8.63415e-06	-5.55	-8.47096e-06
0	-1.26761e-07	2	8.4629e-06	-5.6	-8.28149e-06
0	-9.45229e-08	2	8.55608e-06	-5.65	-8.26058e-06
0	-6.85093e-08	2	8.36031e-06	-5.7	-8.20414e-06
0	-6.63001e-08	2	8.4258e-06	-5.75	-8.47378e-06
0	-9.06737e-08	2	8.326e-06	-5.8	-8.07137e-06
0	-1.05782e-07	2	8.22167e-06	-5.85	-8.03224e-06
0	-9.90329e-08	2	7.90958e-06	-5.9	-7.83304e-06
0	-9.61464e-08	2	7.99904e-06	-5.95	-7.93196e-06
0	-1.38377e-07	2	8.12064e-06	-6	-7.88926e-06
0	-1.52228e-07	2	7.7753e-06	-6	-7.73881e-06
0	-1.65852e-07	2	7.82478e-06	-5.95	-7.62179e-06
0	-1.80321e-07	2	7.7621e-06	-5.9	-7.55176e-06
0	-1.8847e-07	2	7.62615e-06	-5.85	-7.40776e-06
0	-2.00552e-07	2	7.47419e-06	-5.8	-7.13421e-06
0	-2.7257e-07	2	7.41361e-06	-5.75	-7.13174e-06
0	-2.46243e-07	2	7.36907e-06	-5.7	-7.13591e-06
0	-2.65513e-07	2	7.29804e-06	-5.65	-7.01497e-06
0	-2.91587e-07	2	7.21538e-06	-5.6	-6.90184e-06
0	-2.82114e-07	2	6.81147e-06	-5.55	-6.64999e-06
0	-2.93407e-07	2	6.96092e-06	-5.5	-6.48554e-06
0	-3.30786e-07	2	6.66357e-06	-5.45	-6.50659e-06
0	-2.95108e-07	2	6.64645e-06	-5.4	-6.31112e-06
0	-3.24928e-07	2	6.61605e-06	-5.35	-6.20594e-06
0	-3.62982e-07	2	6.5083e-06	-5.3	-6.05188e-06
0	-4.52547e-07	2	6.24092e-06	-5.25	-5.82645e-06
0	-3.85281e-07	2	6.30032e-06	-5.2	-5.94057e-06
0	-6.71831e-07	2	6.42499e-06	-5.15	-5.75113e-06
0	-6.48454e-07	2	6.3549e-06	-5.1	-5.74774e-06
0	-6.75088e-07	2	6.28033e-06	-5.05	-5.62626e-06
0	-6.88951e-07	2	6.20175e-06	-5	-5.53852e-06
0	-6.80812e-07	2	6.08218e-06	-4.95	-5.40936e-06
0	-6.86507e-07	2	6.00142e-06	-4.9	-5.34527e-06
0	-7.19964e-07	2	5.94682e-06	-4.85	-5.20607e-06
0	-6.96862e-07	2	5.83741e-06	-4.8	-5.14277e-06
0	-7.19932e-07	2	5.79605e-06	-4.75	-4.98806e-06
0	-7.91582e-07	2	5.63206e-06	-4.7	-4.87864e-06
0	-8.20323e-07	2	5.63396e-06	-4.65	-4.82337e-06
0	-7.40572e-07	2	5.39769e-06	-4.6	-4.69102e-06
0	-8.06792e-07	2	5.41679e-06	-4.55	-4.69999e-06
0	-8.26419e-07	2	5.09511e-06	-4.5	-4.29748e-06
0	-8.87437e-07	2	5.05351e-06	-4.45	-4.08128e-06
0	-9.27417e-07	2	4.89323e-06	-4.4	-3.94613e-06
0	-9.47526e-07	2	4.6531e-06	-4.35	-3.78173e-06
0	-9.18831e-07	2	4.91448e-06	-4.3	-3.94952e-06
0	-9.71893e-07	2	4.81194e-06	-4.25	-3.86059e-06
0	-9.49647e-07	2	4.86027e-06	-4.2	-3.86146e-06
0	-9.56296e-07	2	4.72804e-06	-4.15	-3.78789e-06
0	-1.006465e-06	2	4.59145e-06	-4.1	-3.59026e-06
0	-1.045686e-06	2	4.55725e-06	-4.05	-3.44687e-06
0	-1.026963e-06	2	4.46285e-06	-4	-3.34665e-06
0	-1.063099e-06	2	4.34898e-06	-3.95	-3.32618e-06
0	-1.092139e-06	2	4.24829e-06	-3.9	-3.16953e-06
0	-1.063043e-06	2	4.26611e-06	-3.85	-3.18243e-06
0	-1.14944e-06	2	4.23511e-06	-3.8	-3.1556e-06
0	-1.14194e-06	2	4.2535e-06	-3.75	-3.0624e-06
0	-1.14922e-06	2	4.14441e-06	-3.7	-2.96472e-06
0	-1.34804e-06	2	4.19263e-06	-3.65	-2.85241e-06
0	-1.37308e-06	2	4.14496e-06	-3.6	-2.76809e-06
0	-1.33848e-06	2	3.9422e-06	-3.55	-2.66962e-06
0	-1.25033e-06	2	3.84766e-06	-3.5	-2.57635e-06
0	-1.43252e-06	2	3.96814e-06	-3.45	-2.53814e-06
0	-1.4143e-06	2	3.93513e-06	-3.4	-2.48952e-06
0	-1.4298e-06	2	3.82421e-06	-3.35	-2.35323e-06
0	-1.5006e-06	2	3.60239e-06	-3.3	-2.26464e-06
0	-1.36541e-06	2	3.56164e-06	-3.25	-2.21411e-06
0	-1.39587e-06	2	3.47282e-06	-3.2	-2.10705e-06
0	-1.38631e-06	2	3.42844e-06	-3.15	-2.09461e-06
0	-1.40191e-06	2	3.52031e-06	-3.1	-2.02698e-06
0	-1.51507e-06	2	3.47072e-06	-3.05	-1.98504e-06
0	-1.53736e-06	2	3.38823e-06	-3	-1.84468e-06
0	-1.58873e-06	2	3.34009e-06	-2.95	-1.79062e-06
0	-1.60029e-06	2	3.30741e-06	-2.9	-1.68676e-06
0	-1.61316e-06	2	3.22951e-06	-2.85	-1.6349e-06
0	-1.63083e-06	2	3.2114e-06	-2.8	-1.5772e-06
0	-1.65775e-06	2	3.18539e-06	-2.75	-1.54168e-06
0	-1.65752e-06	2	3.16868e-06	-2.7	-1.52397e-06
0	-1.67634e-06	2	3.1199e-06	-2.65	-1.47696e-06
0	-1.66157e-06	2	3.10592e-06	-2.6	-1.46094e-06
0	-1.64402e-06	2	3.03698e-06	-2.55	-1.36821e-06
0	-1.69879e-06	2	3.02315e-06	-2.5	-1.32628e-06
0	-1.71083e-06	2	2.96834e-06	-2.45	-1.27796e-06
0	-1.72736e-06	2	2.94809e-06	-2.4	-1.24475e-06
0	-1.53996e-06	2	2.76092e-06	-2.35	-1.21668e-06
0	-1.39258e-06	2	2.6022e-06	-2.3	-1.18666e-06
0	-1.41786e-06	2	2.52322e-06	-2.25	-1.13755e-06
0	-1.40866e-06	2	2.5335e-06	-2.2	-1.07655e-06
0	-1.45379e-06	2	2.48408e-06	-2.15	-1.05105e-06
0	-1.43094e-06	2	2.46134e-06	-2.1	-1.01063e-06
0	-1.3093e-06	2	2.39667e-06	-2.05	-9.8285e-07
0	-1.3315e-06	2	2.25174e-06	-2	-9.43818e-07
0	-1.38458e-06	2	2.24165e-06	-1.95	-8.90355e-07
0	-1.37505e-06	2	2.32426e-06	-1.9	-8.33998e-07
0	-1.48879e-06	2	2.27135e-06	-1.85	-7.78994e-07
0	-1.50381e-06	2	2.27515e-06	-1.8	-7.41411e-07
0	-1.40542e-06	2	2.46538e-06	-1.75	-6.81733e-07
0	-1.88259e-06	2	2.526e-06	-1.7	-6.47317e-07
0	-1.82002e-06	2	2.46465e-06	-1.65	-5.70019e-07
0	-1.81421e-06	2	2.39795e-06	-1.6	-5.96382e-07
0	-1.58585e-06	2	2.15895e-06	-1.55	-5.8838e-07
0	-1.61436e-06	2	2.13226e-06	-1.5	-5.57766e-07
0	-1.61714e-06	2	2.17639e-06	-1.45	-5.13871e-07
0	-1.67706e-06	2	2.24475e-06	-1.4	-4.57604e-07
0	-1.81808e-06	2	2.32131e-06	-1.35	-4.4142e-07
0	-1.67548e-06	2	2.16885e-06	-1.3	-4.48343e-07
0	-1.69014e-06	2	2.21419e-06	-1.25	-4.06384e-07
0	-1.79308e-06	2	2.28427e-06	-1.2	-3.47452e-07
0	-2.13014e-06	2	2.46234e-06	-1.15	-3.33968e-07
0	-2.13967e-06	2	2.46525e-06	-1.1	-2.83722e-07
0	-2.13491e-06	2	2.43123e-06	-1.05	-3.14782e-07
0	-2.17372e-06	2	2.43952e-06	-1	-2.86776e-07
0	-2.1976e-06	2	2.41708e-06	-0.95	-2.07945e-07
0	-2.22524e-06	2	2.46512e-06	-0.9	-1.86843e-07
0	-2.28421e-06	2	2.41531e-06	-0.85	-1.99943e-07
0	-2.21173e-06	2	2.38416e-06	-0.8	-1.91661e-07
0	-2.26555e-06	2	2.42721e-06	-0.75	-1.72931e-07
0	-2.25011e-06	2	2.47796e-06	-0.7	-1.55781e-07
0	-2.22585e-06	2	2.38986e-06	-0.65	-1.41157e-07
0	-2.28777e-06	2	2.43257e-06	-0.6	-1.31114e-07
0	-2.22796e-06	2	2.37527e-06	-0.55	-1.21156e-07
0	-2.30002e-06	2	2.43673e-06	-0.5	-1.11261e-07
0	-2.30948e-06	2	2.44578e-06	-0.45	-1.09641e-07
0	-2.34963e-06	2	2.36615e-06	-0.4	-9.4291e-08
0	-2.2773e-06	2	2.33811e-06	-0.35	-9.03521e-08
0	-2.22356e-06	2	2.33904e-06	-0.3	-8.76039e-08
0	-2.22046e-06	2	2.30509e-06	-0.25	-8.1954e-08
0	-2.21349e-06	2	2.34324e-06	-0.2	-6.84466e-08
0	-2.29086e-06	2	2.40791e-06	-0.15	-6.0419e-08
0	-2.30477e-06	2	2.27654e-06	-0.1	-5.75474e-08
0	-2.20956e-06	2	2.36516e-06	-0.05	-5.11188e-08
0	-2.22365e-06	2	2.21488e-06	0	-4.53946e-08
0	-2.24094e-06	2	2.28357e-06	0.05	-3.86158e-08
0	-2.22849e-06	2	2.21399e-06	0.1	-3.60342e-08
0	-2.25784e-06	2	2.2483e-06	0.15	-3.19558e-08
0	-2.23861e-06	2	2.26971e-06	0.2	-2.72106e-08
0	-2.25061e-06	2	2.258e-06	0.25	-2.24677e-08
0	-2.25346e-06	2	2.16755e-06	0.3	-2.04452e-08
0	-2.20973e-06	2	2.20359e-06	0.35	-1.8945e-08
0	-2.26733e-06	2	2.24156e-06	0.4	-1.70999e-08
0	-2.22739e-06	2	2.25328e-06	0.45	-1.35737e-08
0	-2.22715e-06	2	2.2105e-06	0.5	-1.04174e-08
0	-2.18666e-06	2	2.18408e-06	0.55	-8.57215e-09
0	-2.20127e-06	2	2.20956e-06	0.6	-7.55802e-09
0	-2.15638e-06	2	2.20616e-06	0.65	-6.06258e-09
0	-2.21963e-06	2	2.16696e-06	0.7	-6.90745e-09
0	-1.75065e-06	2	1.743e-06	0.75	-5.72844e-09
0	-1.77219e-06	2	1.9793e-06	0.8	-4.02519e-09
0	-1.95489e-06	2	1.92873e-06	0.85	-3.38124e-09
0	-1.9526e-06	2	1.87242e-06	0.9	-2.62966e-09
0	-1.87927e-06	2	1.90152e-06	0.95	-2.24596e-09
0	-1.97753e-06	2	2.04511e-06	1	-1.23785e-09
0	-2.07813e-06	2	2.06049e-06	1.05	-9.5273e-10
0	-2.06279e-06	2	2.02319e-06	1.1	-7.9236e-10
0	-2.07124e-06	2	2.01976e-06	1.15	-5.9029e-10
0	-2.00668e-06	2	2.05706e-06	1.2	-3.2088e-10
0	-2.08179e-06	2	2.08363e-06	1.25	-1.3027e-10
0	-2.06415e-06	2	2.04263e-06	1.3	4.9802e-10
0	-2.13987e-06	2	2.12638e-06	1.35	1.11592e-09
0	-2.01595e-06	2	1.98633e-06	1.4	2.47985e-09
0	-2.15218e-06	2	1.99862e-06	1.45	4.11017e-09
0	-2.08671e-06	2	2.15176e-06	1.5	9.71254e-09
0	-2.13995e-06	2	2.06508e-06	1.55	1.38322e-08
0	-2.13026e-06	2	2.04382e-06	1.6	1.89469e-08
0	-2.24754e-06	2	2.15519e-06	1.65	2.4156e-08
0	-1.78549e-06	2	1.74282e-06	1.7	3.0093e-08
0	-1.60204e-06	2	1.62718e-06	1.75	6.60938e-08
0	-1.75755e-06	2	1.56996e-06	1.8	5.81448e-08
0	-2.15274e-06	2	2.12817e-06	1.85	9.21714e-08
0	-1.87823e-06	2	1.96145e-06	1.9	1.05319e-07
0	-2.17518e-06	2	2.01247e-06	1.95	1.26033e-07
0	-2.16484e-06	2	2.00143e-06	2	1.96444e-07
